!Keysight Technologies N9918A: A.08.19
!Date: Monday, 03 March 2025 16:48:17
!Timezone: (GMT-06:00) Guadalajara, Mexico City, Monterrey
!Model: N9918A
!Serial: MY53103234
!GPS Latitude: 
!GPS Longitude: 
!GPS TimeStamp: 0001-01-01 00:00:00Z
!GPS Seconds Since Last Read: 0
!CHECKSUM:0482189043
!Correction: S11(ON U)S21(ON U)S12(ON U)S22(ON U)
!S2P File: Measurements:S11,S21,S12,S22:
# Hz S DB R 50
2500000000	-19.8745072615409	146.671736289064	-26.1401168727444	-75.6558996369163	-26.2252488310174	-75.6379330102063	-16.8949121934289	-175.437857626142	
2502000000	-19.7915761984974	146.221313069417	-26.1915524447819	-79.5714966181993	-26.221707467292	-79.6561914256991	-16.8013648135314	-176.461056347706	
2504000000	-19.8351675940232	146.332026312998	-26.1859920808698	-83.5588037570674	-26.2354906568056	-83.5128828817102	-16.682326337771	-177.404137591756	
2506000000	-19.9069837521118	146.377350211464	-26.1784207510857	-87.4860538004343	-26.2150157343867	-87.542149152231	-16.5517297771557	-178.375532680239	
2508000000	-20.0341039699521	146.806077286377	-26.1572899044835	-91.5585696290845	-26.189143769012	-91.576781777705	-16.4131180955842	-179.311074832184	
2510000000	-20.1844853906849	147.303523459542	-26.1135054088566	-95.6486426754084	-26.1536843496865	-95.6203114213374	-16.2975176430383	179.688659682232	
2512000000	-20.3535942063209	148.23503442321	-26.1085855698735	-99.9881826307075	-26.1268442562027	-100.083458600807	-16.1812440067383	178.610169762692	
2514000000	-20.5505933680582	150.033742140065	-26.0869393391805	-104.426460802556	-26.1349113797269	-104.453256204804	-16.1059128094991	177.73527851557	
2516000000	-20.7147377025338	152.060257798077	-26.1258322778739	-108.930747110442	-26.1678726023244	-108.980407972724	-16.0448511728133	176.971908632078	
2518000000	-20.8544887545753	154.786449546892	-26.1875121437279	-113.374886700499	-26.228662091032	-113.328032744598	-16.0182132802765	176.423046501844	
2520000000	-20.8902251137307	157.474304466894	-26.2746421245275	-117.56234527661	-26.3171992509427	-117.587333911488	-16.0123034646267	175.988546524221	
2522000000	-20.882786034598	160.642585964862	-26.3746027452608	-121.453920878462	-26.4156886631461	-121.459860307054	-15.9872139283186	175.686699453127	
2524000000	-20.8091259533736	163.358326735289	-26.4459510957427	-125.28222436677	-26.4762729442267	-125.362108495781	-15.9987476683728	175.516917492224	
2526000000	-20.6788572751994	165.862720197591	-26.5005713788638	-129.050451534181	-26.5332508235759	-128.920246959794	-16.0086436377972	175.441876775108	
2528000000	-20.5318977737219	168.103772387845	-26.5468475696222	-132.687423630937	-26.5824746399985	-132.72471856025	-16.027646498088	175.415609783095	
2530000000	-20.3737265218079	169.82528777948	-26.6060982560948	-136.450979983562	-26.6099121298762	-136.422126736594	-16.0519366069154	175.34726536533	
2532000000	-20.221046704509	171.018174601875	-26.6466927405781	-140.037988333769	-26.6581448707321	-140.175010197758	-16.111617144705	175.271201199018	
2534000000	-20.0952446354274	171.793397410738	-26.67764656263	-143.537720910644	-26.6784954296083	-143.737237433899	-16.1831443293157	175.196637908212	
2536000000	-19.9851604289523	172.341414880766	-26.7047190298594	-147.115792790504	-26.6986112662445	-147.3648533479	-16.2812835723514	175.042676093236	
2538000000	-19.9298110705406	172.253652530689	-26.7128170288201	-150.714569892831	-26.7199304090113	-150.94796240558	-16.408121792352	174.957442668329	
2540000000	-19.9077893997524	171.940738712634	-26.7153893623737	-154.181074773298	-26.7319026304642	-154.385136597537	-16.5769151647382	174.997988258872	
2542000000	-19.9312844822578	171.226971840071	-26.7206228246889	-157.619883861666	-26.7220675153238	-157.869751939917	-16.7324767611666	175.235567260107	
2544000000	-20.0045253437451	170.325438322224	-26.7164667173591	-161.01839187516	-26.7229804235325	-161.200694362657	-16.8865351871573	175.401512785948	
2546000000	-20.1438115450271	168.885731375322	-26.6911050750268	-164.420934664122	-26.6951003951458	-164.696548573091	-17.0160158763027	175.473442656038	
2548000000	-20.3204447883414	167.291428482263	-26.630364571154	-167.766097731926	-26.657582732364	-168.053114797355	-17.14282766522	175.390317223857	
2550000000	-20.5712578473914	165.637729506862	-26.5552604470683	-171.156276712314	-26.5753169644399	-171.478061504219	-17.293810732876	174.933175643188	
2552000000	-20.8614602592017	163.874242007073	-26.4547831570697	-174.703694718259	-26.4719755105741	-175.117261981574	-17.4662838799675	174.229327853973	
2554000000	-21.167768934358	162.22912254131	-26.353630254979	-178.519429079319	-26.3625366322736	-178.780703969939	-17.6645261483679	173.428671652641	
2556000000	-21.5248853683649	160.22883486768	-26.2453096227326	177.541179506962	-26.2458653624638	177.31323975665	-17.8862899555426	172.69087454486	
2558000000	-21.8946992679763	158.298499339032	-26.1478169825391	173.497280396809	-26.1619999112114	173.193825329279	-18.1398891896527	171.940166190948	
2560000000	-22.2408857085014	156.437811318103	-26.0478148090294	169.161002512907	-26.0583381386409	168.991089661872	-18.3635175132253	171.052477064045	
2562000000	-22.6088236421115	154.315736185005	-25.9866159843525	164.861899878945	-26.0077037715937	164.490364796632	-18.577342638605	170.113545575416	
2564000000	-22.9203287838119	152.127949005378	-25.9358754950446	160.362024708723	-25.9519732142659	160.082046279389	-18.8015187625932	169.018521369113	
2566000000	-23.1857482138095	149.463237416606	-25.9241202971217	155.929934236255	-25.9500122059963	155.577413665082	-18.9815986521233	167.934005933178	
2568000000	-23.4930037743562	147.047521821858	-25.9372172989979	151.461496817826	-25.9664720702297	151.175307806463	-19.1505475124796	166.634964796044	
2570000000	-23.8017366060803	144.012973663422	-25.9711559509213	147.154636975104	-25.9936563350333	146.787641875107	-19.306772809551	165.246345297158	
2572000000	-24.0570725092999	140.949910824694	-26.0164458402957	142.962025676404	-26.0365903945171	142.618597909989	-19.4261908907306	163.606008294086	
2574000000	-24.3373812670331	137.888967980885	-26.0492545399926	138.936525392258	-26.0968327977124	138.586764551419	-19.5512149077054	161.980189017407	
2576000000	-24.5531733725913	135.458813414745	-26.1090683822302	134.942396146953	-26.132230681006	134.587077706695	-19.6514277391506	160.221874167683	
2578000000	-24.6928088816354	132.775455306436	-26.1363034545479	131.053779591502	-26.1800652092911	130.813456848154	-19.7317575117783	158.236692765921	
2580000000	-24.7511008118358	130.572437532061	-26.1746414264583	127.212963337799	-26.2217141605574	126.953183643334	-19.8198756743736	156.306378841737	
2582000000	-24.7931422623102	128.184275281976	-26.2064816428123	123.421629867298	-26.236382404016	123.258266109681	-19.9037708014585	154.600378705153	
2584000000	-24.8008727117507	125.774613380036	-26.2423245800519	119.691970032105	-26.2671719715886	119.446206750175	-19.9573165613497	153.156684540013	
2586000000	-24.7745983070722	123.527820497345	-26.2486654868786	115.923732604322	-26.2786263306221	115.82409594801	-19.9943342635648	151.79339565659	
2588000000	-24.8032334950547	121.307301682346	-26.2695543511842	112.316184274413	-26.2792894039452	112.11631330011	-20.0106053101599	150.5661561498	
2590000000	-24.813175275973	119.496024493145	-26.2369963953817	108.705815387655	-26.2690351832985	108.441494069272	-19.9652195069434	149.658588910662	
2592000000	-24.8776754633811	117.471880823604	-26.2255943388288	105.040254038426	-26.2386846249683	104.672401910321	-19.8973226484049	148.738227450173	
2594000000	-24.9570542362822	116.007588952608	-26.1910866152535	101.21802965654	-26.2112064689224	100.83170652364	-19.7944724430756	147.959571997056	
2596000000	-25.0727102454636	114.813300180633	-26.1612768790013	97.3652216724557	-26.1982752872401	96.8625724746517	-19.6812751897229	147.000231011995	
2598000000	-25.2207786833528	113.901515649775	-26.1315805964902	93.2947033955544	-26.177634794263	92.9643348246138	-19.5801472252495	145.894428772986	
2600000000	-25.4481540962398	113.358787890541	-26.1382674675219	89.2474223312218	-26.172941818369	88.8642387423312	-19.5201514597717	144.936508278232	
2602000000	-25.7239948012648	112.787021735637	-26.1398916339345	85.2623754352231	-26.1924126490983	84.8522167812688	-19.5040091893666	143.665139418619	
2604000000	-26.0955832893676	112.484357796221	-26.1329534178345	81.2636690265163	-26.199352603636	80.9416415399547	-19.5520442196367	142.676093146899	
2606000000	-26.480250032191	112.417959517068	-26.1679116508894	77.2871908760775	-26.2147843274655	76.9610132283418	-19.6693027118386	141.815255621762	
2608000000	-26.9840270268392	112.68432948957	-26.1734701334767	73.3588360322132	-26.2457404089858	72.988501644662	-19.8400070364432	141.326830944379	
2610000000	-27.560705528065	112.881497494648	-26.1884207467835	69.4227535298856	-26.2524666814179	69.1695468895072	-20.0942580582577	141.278306879532	
2612000000	-28.1415942320404	113.032089202873	-26.2153592947814	65.441095264014	-26.2693146133764	65.2269903548259	-20.3364884537104	141.491162861687	
2614000000	-29.0386209314396	113.447841684254	-26.245202368787	61.4820354873523	-26.3267672165689	61.3426919426491	-20.649511907308	142.214979396896	
2616000000	-30.1939804563655	113.989961427148	-26.2881761188425	57.4992750299793	-26.3557952272935	57.4932297409771	-20.8854676172204	143.060089733806	
2618000000	-31.6912335992088	115.842361374431	-26.3637786944041	53.6307441826237	-26.4124027099134	53.6330818808292	-21.2367512799069	144.10290196523	
2620000000	-33.6443204546208	119.269907764908	-26.4277772171685	49.80323056142	-26.4849242160674	49.8654908823139	-21.5164057483594	145.107668122293	
2622000000	-36.1506256132506	127.042449804909	-26.5336197429397	46.1111150957394	-26.5548168808209	46.1977759796962	-21.8817456019413	146.243527780461	
2624000000	-39.6249605002102	142.356703497167	-26.6393844705152	42.5910747060874	-26.6769828075895	42.6930564786417	-22.2841856539873	147.311336230996	
2626000000	-42.3798574239727	178.833756239669	-26.7465365489331	39.4600735134673	-26.7706080591984	39.672225269923	-22.7600610272634	148.616379738166	
2628000000	-40.4346799166428	-138.995803132815	-26.8226658019892	36.626714087855	-26.8490355767825	36.8141037201236	-23.2805721456104	150.095160783558	
2630000000	-36.8289452805098	-119.451988933378	-26.8496955703401	34.0382145072481	-26.8609408553842	34.2067368976877	-23.9247004802778	151.89910773661	
2632000000	-33.8997773578671	-110.206989425338	-26.8138365349547	31.4595930555272	-26.8217858249623	31.6887150261798	-24.5780708933461	154.746143421767	
2634000000	-31.6577933732234	-105.649719324708	-26.706470085197	28.5571897527149	-26.7235487407905	28.7715468817037	-25.1915468774314	157.955048202585	
2636000000	-29.9806196910838	-102.579235455634	-26.6050150313271	25.5578286289602	-26.5959881532464	25.7866382309124	-25.8684263409876	161.183934456533	
2638000000	-28.7126779110287	-100.722182084735	-26.4789963993491	22.1504388921559	-26.4618242419127	22.2407411926564	-26.5865097094051	164.650621413516	
2640000000	-27.5776991181496	-99.2209546379453	-26.3640896856726	18.5475844822375	-26.3415423227761	18.6508915641254	-27.3313357337335	169.021846224716	
2642000000	-26.6648882110942	-97.6757243421394	-26.2660673055239	14.8513943463008	-26.2511899539293	14.9553507884402	-28.059086707116	174.090883030531	
2644000000	-25.8815226316507	-96.6965033428714	-26.1837328001153	11.0316796530232	-26.1744785239881	11.0102583286841	-28.852254306526	179.827939371525	
2646000000	-25.1860525385074	-96.1109189987895	-26.1205138387142	7.14862771617729	-26.1024853695586	7.21654826012036	-29.5321030656389	-173.087560943338	
2648000000	-24.6614765906301	-95.478792184511	-26.0489626645762	3.20575088345901	-26.0388298894769	3.40939622195914	-30.0462993267299	-165.150488102492	
2650000000	-24.2610709999482	-94.7372372007994	-26.0156034521797	-0.673856581743373	-26.0010760917634	-0.605526678148753	-30.3574371232578	-156.087540008264	
2652000000	-23.9360839230234	-93.8102749793195	-26.0089738290171	-4.60658896186263	-25.9630019091553	-4.47647030864657	-30.359265789029	-147.66281508776	
2654000000	-23.6797692084441	-92.5755082582479	-25.9909218313661	-8.47478148385272	-25.958619537554	-8.32038447805095	-30.0921825997317	-140.333191432975	
2656000000	-23.5053422481364	-91.5900198794895	-25.9975667347294	-12.1920045630419	-25.9567182368047	-12.1114122541278	-29.758029169673	-134.140138189932	
2658000000	-23.2303237119057	-90.1459112990109	-25.9865827418758	-15.8422926333795	-25.9459082142542	-15.7955138328718	-29.2754753933105	-129.488707432937	
2660000000	-22.9465857632561	-88.9553801668488	-25.9670559528996	-19.4119039626205	-25.9386351607104	-19.4737840279183	-28.7439933004303	-126.069178750646	
2662000000	-22.7109663072042	-88.1751366199613	-25.9467671673043	-23.0683777807353	-25.917406602093	-23.15735929172	-28.2288083455644	-124.315250331691	
2664000000	-22.4427098235904	-87.5612436943435	-25.9348542955865	-26.7788509516143	-25.9282857602784	-26.8971152562812	-27.7991203547942	-123.567869729736	
2666000000	-22.2004439713507	-87.404399575644	-25.9361390921033	-30.3626615550188	-25.9205698340564	-30.4886480537176	-27.4703013994304	-123.571260023008	
2668000000	-22.0072518201333	-87.8000273794225	-25.9175772978313	-33.8393549745622	-25.9136282832758	-34.0770882070419	-27.1602940462459	-124.213556112126	
2670000000	-21.7778107658768	-88.2354120539196	-25.8994579606899	-37.413385052019	-25.8954405697642	-37.6183767023078	-26.8260079603335	-125.775224055503	
2672000000	-21.6288389254933	-89.33444904122	-25.8918902531355	-40.9230983216654	-25.8930834401693	-41.0843823741949	-26.5598983899061	-127.329719553286	
2674000000	-21.5274308285459	-90.3249154155018	-25.8471790946638	-44.4329095738027	-25.8518513301795	-44.610769115806	-26.2335012421234	-129.613572343945	
2676000000	-21.3762087467099	-91.5478156077341	-25.7969612726367	-48.0376384387597	-25.8048987995945	-48.2329369907727	-25.9474828906588	-132.379976449648	
2678000000	-21.2553937454476	-92.9185755871862	-25.7527859631041	-51.799420818014	-25.764388046385	-51.8865394116894	-25.7068259699079	-135.096054409166	
2680000000	-21.1163177693663	-94.2085530281197	-25.6949573714767	-55.4412732181017	-25.7255507652192	-55.7359606382644	-25.4313889149782	-138.047426183059	
2682000000	-20.9407290640982	-95.9701611525062	-25.6803053655633	-59.365822646374	-25.6970963808285	-59.4937282237853	-25.235180972085	-140.920859935992	
2684000000	-20.7035740440692	-97.493914479161	-25.6513240293704	-63.369525376112	-25.6868446022421	-63.5135133304466	-25.0387589536743	-143.504645000865	
2686000000	-20.3898244946078	-99.4601272401474	-25.6478707315455	-67.2446918404554	-25.6940917985192	-67.318602604316	-24.7959342191728	-145.747678756943	
2688000000	-20.048665502156	-101.758090712639	-25.6766731612237	-71.0496458358569	-25.7214245007709	-71.2509430156138	-24.5332658831193	-147.292997982857	
2690000000	-19.6432882402926	-104.384866690264	-25.7031778332113	-74.7035711137511	-25.7341151561101	-74.9285852839074	-24.3026309537229	-148.502449663139	
2692000000	-19.272377668422	-107.286543156078	-25.7221765478264	-78.3564148156462	-25.7700008674183	-78.5159345293152	-24.0134422990063	-149.010768591361	
2694000000	-18.8908986769175	-110.367723543043	-25.7382731773828	-81.9480817782727	-25.7889540132407	-82.1221164690552	-23.7062039847177	-148.824023726188	
2696000000	-18.505648645968	-113.480261920904	-25.7354540484908	-85.4305590368742	-25.8068765695579	-85.5385911074586	-23.2996912498445	-148.160578648573	
2698000000	-18.1541015280772	-116.450908758718	-25.7252431005685	-89.0281003608913	-25.7897622899066	-89.1213849942581	-22.8753341843759	-147.363811131477	
2700000000	-17.8536732426183	-119.349481641183	-25.7055105717845	-92.6574242516268	-25.7641307982312	-92.7899607536405	-22.3793913758829	-146.689357517631	
2702000000	-17.5761059479568	-121.789767870228	-25.6903071518564	-96.4370793204442	-25.759112282015	-96.6212791222064	-21.8813006069277	-146.156757682149	
2704000000	-17.2861987026562	-123.936161155247	-25.6990951627291	-100.304466104834	-25.7561514451858	-100.283689861723	-21.3678274287706	-145.696644427867	
2706000000	-17.0203592433983	-125.872673845943	-25.7260461493443	-104.122330150829	-25.7695188058773	-104.075626291492	-20.8380999204615	-145.242675122726	
2708000000	-16.7365296074917	-127.450612972942	-25.7511174443142	-107.803588916407	-25.8074193236171	-107.784538887492	-20.37795017006	-144.9585661822	
2710000000	-16.4797572001627	-128.942832878528	-25.7925327747492	-111.401230560695	-25.840305756727	-111.36328758102	-19.9019333572533	-144.39685452659	
2712000000	-16.2304050293532	-130.243617032094	-25.8053214046373	-114.975618834865	-25.8673754517661	-114.777758928567	-19.4367273279523	-143.964165720811	
2714000000	-15.98944492575	-131.372957818664	-25.825103864341	-118.25756689612	-25.9002289341201	-118.173099003077	-18.9592357315517	-143.839003563934	
2716000000	-15.781536092513	-132.333152139029	-25.839895071557	-121.955047953846	-25.8888474859169	-121.656956856943	-18.5259893480257	-143.715382199784	
2718000000	-15.5745438513027	-133.156694933177	-25.8415132054544	-125.445967793325	-25.9004381698771	-125.220937840529	-18.0804819215518	-143.911210536931	
2720000000	-15.3961073411535	-133.86563471867	-25.8579379960115	-128.86906957631	-25.9106698806322	-128.786347133309	-17.6984809006114	-144.323585620165	
2722000000	-15.2322261470985	-134.387296318876	-25.8802071993629	-132.519100557926	-25.9290700395902	-132.304305402679	-17.3378809097038	-145.168843203278	
2724000000	-15.0909436534607	-134.781402518164	-25.9050761961904	-136.016912123844	-25.9394176548565	-135.816565983825	-17.0478940685896	-146.033674904215	
2726000000	-14.9554516057783	-135.055550936335	-25.9289840426911	-139.36453371375	-25.969997125425	-139.17719669697	-16.8399189559885	-146.882013163587	
2728000000	-14.8327438836424	-135.225665727505	-25.9523246599358	-142.804787995503	-25.9649716413421	-142.707946577348	-16.6982179269127	-147.785146670056	
2730000000	-14.6982902790762	-135.376768666724	-25.9492060736454	-146.211661537174	-25.9912522337281	-146.214405596806	-16.6249873295347	-148.427683777416	
2732000000	-14.5927035140189	-135.596402062577	-25.9479521628578	-149.632129030433	-26.0140734437247	-149.630170877445	-16.5769959762033	-148.895716131942	
2734000000	-14.468849274199	-135.884844090617	-25.9741589076216	-153.11651017298	-26.0357924737769	-153.179222253674	-16.5655936956861	-149.266189751024	
2736000000	-14.4111554782359	-136.232571016081	-26.0127456489951	-156.618137639906	-26.08134851169	-156.659874215676	-16.5492828708903	-149.351291254537	
2738000000	-14.3411285722107	-136.657935624944	-26.057275637908	-159.966793430342	-26.1356937155275	-160.006499094989	-16.5224720857485	-149.461525857755	
2740000000	-14.3049210304742	-137.15321846357	-26.0919737431537	-163.267665947963	-26.1661414259152	-163.212823463971	-16.4893695595451	-149.626787253147	
2742000000	-14.3030829666327	-137.676717788133	-26.1349753511872	-166.483638733656	-26.2149189844935	-166.284855618344	-16.4740758454631	-149.903607772523	
2744000000	-14.3142982421509	-138.19701541341	-26.1353540220133	-169.544380253951	-26.2276801398953	-169.32765224985	-16.4547076325084	-150.41774727868	
2746000000	-14.3733054074862	-138.608721608831	-26.148551287483	-172.643129073523	-26.2350367434477	-172.372101025718	-16.4909633549894	-150.969872553305	
2748000000	-14.3946615964125	-138.900839410914	-26.1569393463292	-175.771867040395	-26.2365307759555	-175.383691664615	-16.5386108124543	-151.466848534571	
2750000000	-14.4285785988808	-139.314421085803	-26.1363448169086	-178.828101453999	-26.2251468824682	-178.310908272871	-16.6314861137782	-151.944038286065	
