!Keysight Technologies N9918A: A.08.19
!Date: Monday, 03 March 2025 16:52:27
!Timezone: (GMT-06:00) Guadalajara, Mexico City, Monterrey
!Model: N9918A
!Serial: MY53103234
!GPS Latitude: 
!GPS Longitude: 
!GPS TimeStamp: 0001-01-01 00:00:00Z
!GPS Seconds Since Last Read: 0
!CHECKSUM:0113633121
!Correction: S11(ON U)S21(ON U)S12(ON U)S22(ON U)
!S2P File: Measurements:S11,S21,S12,S22:
# Hz S DB R 50
2500000000	-19.9176059871593	145.710843023268	-26.1653078750174	-71.1256812159513	-26.2476530250691	-70.7349980238143	-16.912379058585	-175.589179993383	
2502000000	-19.8320210640209	145.587225043223	-26.2015170024492	-75.0093308215685	-26.2204783507474	-74.6776361365035	-16.8129450954999	-176.675379776115	
2504000000	-19.864343738828	145.686244562447	-26.1696499098879	-79.0316369505233	-26.201760144171	-78.6305990353616	-16.6794972287222	-177.598170793686	
2506000000	-19.9101545464715	145.896629819817	-26.1612036320791	-83.0139718472949	-26.190031385439	-82.6391567461658	-16.5230121170057	-178.616705180866	
2508000000	-20.0169349484687	146.37985170264	-26.1503260702178	-87.0843760842078	-26.1478031016356	-86.6908781914661	-16.3709846811919	-179.698101419515	
2510000000	-20.140095553264	147.001609860931	-26.1184049284308	-91.2620614231539	-26.1007526064863	-90.8756177896111	-16.2426731832631	179.301975238014	
2512000000	-20.283782772012	148.156985686643	-26.1035248876605	-95.4809469934258	-26.0656476215126	-95.1729891927523	-16.1131435866888	178.157726107642	
2514000000	-20.4705660004919	149.773939837465	-26.0918118326491	-99.9059849720545	-26.0624935906761	-99.7270537456181	-16.0416923697303	177.22112030324	
2516000000	-20.6180178449896	151.816457009379	-26.1021967667171	-104.451399935094	-26.0867918334483	-104.238799203958	-15.9787458566908	176.409089116021	
2518000000	-20.7497766799015	154.503801227196	-26.1814363907598	-108.806644073559	-26.1366260162448	-108.716772117916	-15.9490762369014	175.753989525334	
2520000000	-20.8075552221227	157.258376936244	-26.2562860263486	-113.082582943652	-26.2186586629903	-113.087924635082	-15.9546198139049	175.318201493487	
2522000000	-20.7868387681814	160.305374717523	-26.3590467499554	-116.978055298389	-26.3096651908933	-117.035677389241	-15.9408160905761	175.030866425307	
2524000000	-20.711999311274	162.967625425971	-26.4225720395106	-120.781615684503	-26.391129984036	-120.992961816349	-15.954511310225	174.940341062331	
2526000000	-20.5813872236289	165.603898244203	-26.4788877674231	-124.460947551895	-26.4411816077008	-124.62192250432	-15.9860400420979	174.979872858146	
2528000000	-20.4570846059327	167.909482505821	-26.5159770406718	-128.127723927312	-26.4786282206072	-128.337457595549	-16.0041039522577	175.043413203732	
2530000000	-20.3179542011523	169.614788030611	-26.5409481487536	-131.862354287178	-26.5040796375849	-132.084230683352	-16.0448194516306	175.083611991156	
2532000000	-20.1883615606762	170.84232682771	-26.5642331792279	-135.591460259168	-26.5527447464118	-135.882972845404	-16.0992447768596	175.049024394163	
2534000000	-20.0661420981882	171.831448941119	-26.598312928344	-139.345482720883	-26.5592429103992	-139.415712650284	-16.1775562666898	175.192434623952	
2536000000	-19.9726235123339	172.31799143453	-26.6176139803288	-143.037291401812	-26.5891329128764	-143.198183964386	-16.2648148804728	175.21523725158	
2538000000	-19.9466269046108	172.445169221382	-26.652876995163	-146.609873500012	-26.6028517418096	-146.901219362438	-16.4041442954844	175.306908966274	
2540000000	-19.9623863321837	172.305842409736	-26.6752630683215	-150.332815224732	-26.6140453280514	-150.566426995045	-16.5432193480464	175.418157948977	
2542000000	-20.0046767288914	171.887745367825	-26.7152779725276	-153.78157482612	-26.6294851337388	-154.252988694029	-16.7058293246909	175.662022824153	
2544000000	-20.0829777015211	171.066393403804	-26.7372820203003	-157.233818051477	-26.6327457182643	-157.734931360861	-16.8583174432119	175.805943885898	
2546000000	-20.2312449088617	169.97920275091	-26.7346000800738	-160.474992667588	-26.6480450779822	-161.126133056225	-17.0062314468938	175.973454364586	
2548000000	-20.3986217993276	168.682524989734	-26.6982050657822	-163.470699952263	-26.6174117258102	-164.490102149751	-17.1460261949959	175.873817408297	
2550000000	-20.6300302559443	167.14399795845	-26.6091132063093	-166.695582746185	-26.5422882432138	-167.901988290938	-17.2987830220715	175.534046100045	
2552000000	-20.9101527457483	165.49183908092	-26.5093226591243	-170.071688414022	-26.4623535266631	-171.357949243066	-17.4755556583996	174.895534441843	
2554000000	-21.2104523872399	163.821106103708	-26.3771453301502	-173.692790202036	-26.3885147462371	-175.12390843424	-17.684799369426	174.26183215959	
2556000000	-21.5617014559781	161.826275382458	-26.2394143494958	-177.616490804683	-26.2642327937184	-179.081326896007	-17.8996958207127	173.438875492029	
2558000000	-21.953924000218	160.034382048351	-26.1173627421936	178.330523054461	-26.1809440448767	176.904153602514	-18.1478459288414	172.573376598803	
2560000000	-22.2557160030569	157.780049663379	-26.0275576703251	173.811530681546	-26.0947581793233	172.549912811846	-18.3941330315611	171.710148944281	
2562000000	-22.6322750096406	155.874915648712	-25.9414765100043	169.472934761603	-26.0357390231285	168.189496927158	-18.6092008592565	170.813744251881	
2564000000	-22.9527085703094	153.528012997374	-25.8909475657866	164.97504513285	-26.0094644205589	163.732183270671	-18.8340179933891	169.562874199111	
2566000000	-23.2000724505909	150.695829427803	-25.859255474015	160.360881100306	-26.0117377128822	159.382748727752	-19.0201041516843	168.469515070441	
2568000000	-23.4953519012132	147.838286483045	-25.8794290465177	155.792251137918	-26.031228409995	155.031565804734	-19.2072778411304	166.999099055943	
2570000000	-23.7476076765268	144.471930994026	-25.9211496381187	151.419666982157	-26.0743552188886	150.72597952903	-19.3506844417607	165.503063191919	
2572000000	-24.0178776902404	141.156390756043	-25.9660332855984	147.156183404144	-26.1222731367169	146.677722891448	-19.4796414956966	163.811099078284	
2574000000	-24.2644665077734	137.401096409913	-26.0248347456787	143.155784196228	-26.1709116151055	142.741303730554	-19.6048656206992	161.964762080186	
2576000000	-24.4970638070823	134.523527792074	-26.0908602056373	139.092429808051	-26.2319195018592	138.719985961709	-19.6881815740023	160.057740287515	
2578000000	-24.6663434910049	131.463326103857	-26.1434314041961	135.201154989944	-26.2874165226784	135.020445960542	-19.7743162486666	157.876376587264	
2580000000	-24.7646045095004	128.781297842301	-26.1907181703193	131.391613691651	-26.329129402287	131.269798802651	-19.8500943454671	155.783222443563	
2582000000	-24.8504724922575	126.124611939302	-26.2374537004028	127.713254585931	-26.3571987695418	127.584940748476	-19.9191771844057	153.837281978671	
2584000000	-24.8603648544338	123.968230644145	-26.2336416410645	124.038288755475	-26.3719612805374	124.052021778113	-19.9902765425789	152.188100433332	
2586000000	-24.8515578420362	121.938562484529	-26.2562724588965	120.400530652173	-26.3860051822473	120.351203868801	-20.0288234387576	150.615937015788	
2588000000	-24.8323161415782	119.771395656823	-26.2488147468763	116.722576358302	-26.3999780232139	116.814259572973	-20.0388709647853	149.345770816546	
2590000000	-24.8199174116768	118.290772210734	-26.2430469148433	113.044947355129	-26.37603380892	113.315514474745	-20.0054618172075	148.299059382842	
2592000000	-24.8500450748277	116.496195325489	-26.2088962301257	109.290504249547	-26.3320725674943	109.690582378029	-19.9432795867183	147.324219964792	
2594000000	-24.8875927745722	115.033966662943	-26.1854908915797	105.490271568411	-26.2929837775135	105.974618826029	-19.8547878821793	146.600397544	
2596000000	-24.9864814400663	114.062306582068	-26.1715811292397	101.535737924897	-26.2355748787724	102.047669475601	-19.7614857740976	145.768884934681	
2598000000	-25.0853685899818	112.963013657658	-26.1578392667695	97.4748078595736	-26.2109855188649	98.0452768171761	-19.6637790343826	144.768644037555	
2600000000	-25.2628900545088	112.308979946246	-26.1516233232342	93.4752909571668	-26.1960105852041	93.8471629772827	-19.6076059227926	143.918573196249	
2602000000	-25.5260830829834	111.886020979899	-26.168733060392	89.4472627148099	-26.1896627302288	89.8777765959019	-19.5896306802481	143.085664619352	
2604000000	-25.8600687234642	111.26752249307	-26.1882605554833	85.4257625638894	-26.1986726291635	85.9344992186399	-19.631279380714	142.270863659541	
2606000000	-26.2800273696077	111.293782164801	-26.216596824785	81.5424942567577	-26.2247833282902	81.9549740777301	-19.7187471122776	141.609195483874	
2608000000	-26.8251175782449	111.797444054181	-26.2539424461078	77.5921361251631	-26.2460158395398	77.9957096774113	-19.876996018725	141.405286642635	
2610000000	-27.3326052897891	112.285790991181	-26.2782338859386	73.7753938328707	-26.260591740155	74.1678803872236	-20.080463525609	141.426025287985	
2612000000	-27.9879048644222	112.994471196945	-26.3056600363288	69.9826310348111	-26.2763263571154	70.2130812176991	-20.3213993512811	141.896641426816	
2614000000	-28.8224789518792	113.661788387061	-26.3455186066917	66.1822253898552	-26.3039551509404	66.3839679572171	-20.6078816539893	142.785636741162	
2616000000	-29.9698545856391	114.909802537283	-26.3785383027842	62.4076704013663	-26.3399109726677	62.4092232447874	-20.8222047620729	143.740298305297	
2618000000	-31.3230179753278	116.979455059965	-26.4320537015647	58.5155257847824	-26.3906580901955	58.6259503400248	-21.118047929113	144.835239903265	
2620000000	-33.1016587833957	120.761430486922	-26.5034261496702	54.7844739406366	-26.4617661222688	54.777461230062	-21.4004740333471	146.15745417818	
2622000000	-35.5362011272703	128.744589748161	-26.5848307216706	51.2533995021785	-26.5449882413748	51.1940254411748	-21.7454493886009	147.296847534986	
2624000000	-38.5210636867786	143.551067024034	-26.6790841282407	47.8877112255627	-26.6528318718427	47.7784222064769	-22.1376169256272	148.603225615164	
2626000000	-41.2771265629321	175.254508398961	-26.7715247861176	44.7989339745116	-26.7381653642266	44.6869974615738	-22.5538065651197	150.017294716003	
2628000000	-39.9470230330247	-145.816301946306	-26.827051656914	42.0735470367716	-26.7833852210471	41.9387556380668	-23.0061578766107	151.723783090616	
2630000000	-36.76175029536	-123.169047175582	-26.8101561914513	39.4517942500253	-26.7748703299227	39.2538033124068	-23.6112876933416	153.542291947243	
2632000000	-33.9148036424684	-112.772865947679	-26.7398327320939	36.7203302603097	-26.7052524058533	36.5844517492611	-24.1868955338746	156.053586849175	
2634000000	-31.6305541860384	-107.356301280409	-26.6292495357691	33.7334280868602	-26.6175323188975	33.6255310195026	-24.837951726355	158.653610545821	
2636000000	-29.9696705978369	-103.883645895346	-26.5092635483582	30.3319298314061	-26.4741780572929	30.3125031525082	-25.4760812132599	161.792025646944	
2638000000	-28.6024536730623	-101.478078903328	-26.375682866194	26.8226862413118	-26.3461123454008	26.7734077698049	-26.1947374298329	164.901205110924	
2640000000	-27.4957749167213	-99.554695343195	-26.2724299712805	22.9279419005573	-26.2501852340331	23.0261663830311	-26.9296341855304	168.731727943312	
2642000000	-26.5465769160666	-97.9445885008741	-26.207831242456	19.1779297086857	-26.1641431648514	19.2077926559435	-27.7530722708526	173.371251390965	
2644000000	-25.7668273758635	-96.4629870513431	-26.1548439087437	15.3274674871309	-26.1079861503159	15.2905927873356	-28.6145596335011	178.50959916894	
2646000000	-25.0293227903648	-95.6573535312485	-26.1082532960112	11.6882658898126	-26.0450062931038	11.4172411529162	-29.4486981623058	-174.534718869032	
2648000000	-24.5039990766621	-94.9842102212608	-26.0616852093324	7.89523396309847	-26.0111179809572	7.52502685731126	-30.0637558828192	-166.583495427546	
2650000000	-24.0732127505557	-94.2626325287996	-26.028044526867	4.07009859519955	-25.9815435218618	3.70808445506957	-30.5097274985618	-156.791119427787	
2652000000	-23.6949755894943	-93.5206302286313	-26.0007910878047	0.151741108774272	-25.9594578849145	-0.220062354356249	-30.6636042244412	-147.675115218678	
2654000000	-23.4612299571688	-92.5162875398688	-25.988102672892	-3.56745738435423	-25.9668250038959	-4.03092714853806	-30.3932998577416	-138.823812527849	
2656000000	-23.2570773497671	-91.4654458344698	-25.9787530532188	-7.23494122128986	-25.9541501395333	-7.64268275194164	-30.1099042963588	-132.223117969139	
2658000000	-23.0147209484482	-90.0781039381022	-25.9454948283394	-10.8207348127401	-25.9557021410621	-11.2609888069991	-29.571907677935	-126.646287761902	
2660000000	-22.7974697943542	-88.8850932287318	-25.9155884668106	-14.4188483483408	-25.9363213868621	-14.9945373211482	-28.9899308802206	-123.189851280865	
2662000000	-22.5526027309672	-88.0629759574314	-25.8851690400468	-18.2996185553896	-25.9305169680809	-18.5977174062188	-28.4915093862518	-121.231324405565	
2664000000	-22.3224665540918	-87.3753694317438	-25.876278591486	-21.9612191642964	-25.9079670030858	-22.2520365841875	-28.0201472999279	-120.305886728639	
2666000000	-22.1434904797375	-87.246526404798	-25.8701078283784	-25.6093205471832	-25.9033021456857	-25.7703860630258	-27.654030348011	-120.434320892073	
2668000000	-21.9593979174882	-87.49574524785	-25.8609510430991	-29.2399250802822	-25.8978125012817	-29.3751054423658	-27.3088190040411	-120.823242531961	
2670000000	-21.763334860044	-87.9689078305189	-25.8480970857175	-32.8447777248588	-25.8881043989677	-32.9053455602789	-26.9706202710044	-122.690205640667	
2672000000	-21.6516131037007	-88.8977761771241	-25.8363382161305	-36.2911388276151	-25.8746959485211	-36.4264447112586	-26.6842449241765	-124.78406898494	
2674000000	-21.5602802385048	-89.9029965337671	-25.7941133890731	-39.8984106052131	-25.828225608035	-40.0152181202918	-26.3900205545318	-127.099001436331	
2676000000	-21.4570971816364	-91.0075712735163	-25.7549740056627	-43.3633019939946	-25.7982692980159	-43.6225906141975	-26.1270476945302	-130.217591080331	
2678000000	-21.3534031899731	-92.5270043841157	-25.7020689118079	-46.9480015250712	-25.7478255307926	-47.3935790301985	-25.8718579982409	-133.390124269005	
2680000000	-21.245314949135	-93.6196991734615	-25.6567821696819	-50.8377549481609	-25.7230360996469	-51.1610714117565	-25.59125997875	-136.566106562516	
2682000000	-21.0595348808945	-95.2664767516963	-25.6301796542466	-54.7181196719382	-25.6942652341982	-55.0845891278654	-25.3545511461328	-139.719323752412	
2684000000	-20.8281457106563	-96.8983960749938	-25.6117336653903	-58.6391941692331	-25.6933241359051	-59.0225784857444	-25.149145303705	-142.497690014759	
2686000000	-20.506426613888	-98.7789943904876	-25.6162342368052	-62.588961770482	-25.7164697840788	-62.8342794750934	-24.865346416701	-145.030066183736	
2688000000	-20.1515818533933	-101.294789582642	-25.6305863301637	-66.4030413018241	-25.738958728243	-66.6679313351913	-24.6019108935067	-146.848358991874	
2690000000	-19.7476179662283	-103.80746090678	-25.6526279374517	-70.2087460457253	-25.7740512361941	-70.3530582037095	-24.3628904480061	-148.250957701837	
2692000000	-19.3659225092957	-106.818659564262	-25.6676993657106	-73.8584091170315	-25.8011035065574	-73.9366027356075	-24.0377437110682	-148.931803652114	
2694000000	-18.956091122219	-110.02619286338	-25.6897127076773	-77.4949168145334	-25.8215941811462	-77.4224714311185	-23.6921127428734	-148.995160387558	
2696000000	-18.56804819037	-113.199766099131	-25.6801967243555	-80.9592072213649	-25.8321191709264	-80.819469033796	-23.281781448659	-148.600515363288	
2698000000	-18.206505514749	-116.333805655618	-25.6845062623659	-84.6456153387514	-25.8283036150358	-84.2644808329606	-22.8110988905336	-147.867168900051	
2700000000	-17.8852629966346	-119.315697190731	-25.6682967290256	-88.3175606728084	-25.8222444986859	-87.8405251961832	-22.3277103786544	-147.373676773576	
2702000000	-17.5823231233241	-122.008810620976	-25.6628728813758	-92.0251383406703	-25.8089378192958	-91.4864643266977	-21.7915565759331	-147.00606823696	
2704000000	-17.2890823730348	-124.284004214098	-25.6751526829651	-95.8161774598201	-25.8045804361232	-95.0693749906874	-21.2914809318147	-146.568145529362	
2706000000	-17.0107164478532	-126.263842937388	-25.7144793662992	-99.6241397443311	-25.8159228187778	-98.693561377714	-20.7719091568706	-146.291258747971	
2708000000	-16.7177307615272	-127.892673479911	-25.7555437089079	-103.417299132119	-25.8168350033844	-102.32307763214	-20.2947062134399	-145.972002707381	
2710000000	-16.4561487851097	-129.420675046012	-25.7892147504595	-106.817693317114	-25.832648478113	-105.905082707711	-19.8316526475049	-145.615112561518	
2712000000	-16.1946016427796	-130.791847768401	-25.8160058384633	-110.289320301851	-25.8429984129263	-109.336065583985	-19.3703268463746	-145.113980540066	
2714000000	-15.9599062983433	-131.834183617348	-25.8325317270524	-113.657298353586	-25.8417465024197	-112.847973895122	-18.8992836673913	-144.896489126763	
2716000000	-15.7372458606676	-132.82504451376	-25.8443044838347	-117.159270320945	-25.8308948625632	-116.406547271897	-18.4707865900122	-144.79164936769	
2718000000	-15.5185873384316	-133.706795883693	-25.8507954980056	-120.670466696834	-25.8353889440432	-120.127341446104	-18.0314594336746	-144.966901232211	
2720000000	-15.3462743791635	-134.481968081558	-25.8683629295592	-124.130356013724	-25.835905738866	-123.805226015629	-17.6490627743197	-145.209677194909	
2722000000	-15.178095543311	-134.953253431588	-25.89287241998	-127.648441049675	-25.8622391833169	-127.24439554274	-17.3087494606248	-145.973774374482	
2724000000	-15.0463193825461	-135.389777175765	-25.9011660043814	-131.062380559496	-25.8803829283877	-130.699584056698	-17.037059692047	-146.766411959004	
2726000000	-14.9135784964338	-135.682993378201	-25.9039332380674	-134.507094794528	-25.8941621549376	-134.138771169587	-16.8374146327155	-147.406968732655	
2728000000	-14.8017050821184	-135.774349024899	-25.9048149382734	-137.814182103674	-25.899547824149	-137.496423201351	-16.6854645540434	-148.293630640691	
2730000000	-14.7010377123648	-135.905322120824	-25.9120327869348	-141.2783315762	-25.9027511427685	-140.979266394318	-16.6236984728414	-148.769987851989	
2732000000	-14.5998691725881	-135.932539811295	-25.9048495396669	-144.869824055737	-25.9087416881433	-144.462929302082	-16.5929933911438	-149.147187264778	
2734000000	-14.4859261402244	-136.059975866903	-25.9096662589753	-148.356277716087	-25.9173090075884	-148.129186958952	-16.5853475494213	-149.374159107171	
2736000000	-14.4297921067766	-136.36938753676	-25.9393433915676	-151.978279315279	-25.9446469718685	-151.636582947705	-16.5605724572455	-149.367108354566	
2738000000	-14.3565176252121	-136.630686060459	-25.9770024587897	-155.394338466563	-25.9894419072151	-155.132814328688	-16.5486007109139	-149.286971652107	
2740000000	-14.3253465385692	-136.974802183201	-26.0162297437323	-158.738859662542	-26.0218683429195	-158.442473823951	-16.5205963497767	-149.305629544228	
2742000000	-14.311775258148	-137.372045008893	-26.0520021972355	-161.978783627233	-26.0631775123378	-161.578544034967	-16.4972355579908	-149.416072879019	
2744000000	-14.340750101533	-137.790027095159	-26.0883091783646	-165.145315372619	-26.0671391837558	-164.811799262401	-16.4872694851238	-149.696465435163	
2746000000	-14.3768648101152	-138.137946944323	-26.1146985325236	-168.41189634033	-26.0840430816189	-167.977315078636	-16.5086071517359	-150.137963913762	
2748000000	-14.4130566961934	-138.439251075983	-26.1249517448059	-171.512344330695	-26.0870671955217	-171.247646040673	-16.53084288913	-150.613181134268	
2750000000	-14.4465366566248	-138.76392991931	-26.1424887367097	-174.659950777797	-26.087808461142	-174.369329203842	-16.6254795198308	-151.148290986666	
