! Created with skrf (http://scikit-rf.org).
# Hz S RI R 50.0 
!freq ReS11 ImS11
2500000000.0 -0.1361696460991389 0.0669900050881725
2502000000.0 -0.13527029317570632 0.07171457718510771
2504000000.0 -0.13323255147308444 0.07490327129917759
2506000000.0 -0.13101899230386382 0.0773291738648173
2508000000.0 -0.12849258718435635 0.07894377765309457
2510000000.0 -0.12631877751766632 0.08022643996394621
2512000000.0 -0.12453324848073802 0.08127892644735217
2514000000.0 -0.12264460892187681 0.08186414265997806
2516000000.0 -0.12029212003199137 0.08247473392613923
2518000000.0 -0.11795143846174422 0.08267570960997367
2520000000.0 -0.11499740431672835 0.0825814647911285
2522000000.0 -0.11177019430404203 0.08136800575494556
2524000000.0 -0.10858297182403605 0.08011524328937775
2526000000.0 -0.10562624322991199 0.07785728479338155
2528000000.0 -0.10225579891163415 0.07520677250735378
2530000000.0 -0.09989030874831507 0.07215094132297016
2532000000.0 -0.0974217208916301 0.06965328158349117
2534000000.0 -0.09576941020720475 0.06746693182405483
2536000000.0 -0.09414654225183709 0.0661962425355068
2538000000.0 -0.09188858009705643 0.06590206244828083
2540000000.0 -0.08882974125209475 0.06616832154678363
2542000000.0 -0.08471968085852491 0.06659322974218729
2544000000.0 -0.08007549963549683 0.06670566265495681
2546000000.0 -0.07452636021526954 0.06678016787880238
2548000000.0 -0.06893604744619858 0.0661538597619386
2550000000.0 -0.06347535175068954 0.06539532707570596
2552000000.0 -0.05829612650831815 0.06430069554682911
2554000000.0 -0.05381563983511412 0.0634095521716717
2556000000.0 -0.04869898790035911 0.06330333237783982
2558000000.0 -0.04343483686991051 0.06310400869912342
2560000000.0 -0.03834306615981536 0.06356143107325296
2562000000.0 -0.032216917325159 0.06322873572451335
2564000000.0 -0.026198759862965056 0.06236389679990522
2566000000.0 -0.020476706411626078 0.06171178359033409
2568000000.0 -0.014986596871418359 0.05971273735556134
2570000000.0 -0.009958013726072582 0.057967898829601176
2572000000.0 -0.005667911858095431 0.05579916558561632
2574000000.0 -0.0018425860537334803 0.054006099286416205
2576000000.0 0.0009639941361557759 0.05185076149650553
2578000000.0 0.0035454173770750335 0.05028503264519098
2580000000.0 0.005716807727985877 0.048910288361860337
2582000000.0 0.008126300567440644 0.04838011554539421
2584000000.0 0.010148946891351356 0.04729341444991412
2586000000.0 0.012355270005634677 0.04635950303410486
2588000000.0 0.014926316385596147 0.04493387428590941
2590000000.0 0.0175195382850513 0.043129289978233516
2592000000.0 0.01964516648398643 0.04030749627488992
2594000000.0 0.021924298830591608 0.03690513569238336
2596000000.0 0.02324911801452864 0.03251322810718609
2598000000.0 0.023537752166850896 0.027808841082331892
2600000000.0 0.02312049723841711 0.023022419971869757
2602000000.0 0.02174222013449151 0.01795842006082145
2604000000.0 0.020398920757236105 0.01364198152075567
2606000000.0 0.018702733930023394 0.009696005391305303
2608000000.0 0.017776621510969006 0.005219417979838217
2610000000.0 0.017076623110463488 0.000361106286137667
2612000000.0 0.016339548378477287 -0.004652001133372721
2614000000.0 0.015273133923373651 -0.010550840413054102
2616000000.0 0.014213617935122479 -0.017464271165647655
2618000000.0 0.012212139246385168 -0.024538248784637205
2620000000.0 0.009322088681318789 -0.03151768464285352
2622000000.0 0.006187499551857396 -0.03856279883051765
2624000000.0 0.002752869990147704 -0.04519731946748703
2626000000.0 -0.0008027017461848359 -0.05100333401950913
2628000000.0 -0.004260767332107182 -0.056537117873243024
2630000000.0 -0.007435252616701247 -0.061716869328071675
2632000000.0 -0.009992001429433935 -0.0671709762799191
2634000000.0 -0.012780111401573938 -0.07281381582771136
2636000000.0 -0.015703751167844435 -0.07812996557584884
2638000000.0 -0.01915353523404002 -0.08293253266607131
2640000000.0 -0.022719884011251256 -0.08686402985067007
2642000000.0 -0.026258067528715096 -0.09001409640916574
2644000000.0 -0.029526141141076274 -0.09172655182244382
2646000000.0 -0.03242440624234095 -0.09288412786485911
2648000000.0 -0.034346515033156375 -0.09277018539883575
2650000000.0 -0.035076956572092505 -0.0922572900319355
2652000000.0 -0.03497523224536628 -0.09197594678556309
2654000000.0 -0.034157092299897704 -0.09164867779777558
2656000000.0 -0.03334634532214575 -0.0915071543585139
2658000000.0 -0.031844150470781284 -0.09228499295852824
2660000000.0 -0.030731574472454996 -0.09321639005630572
2662000000.0 -0.030300622168900844 -0.09451643229390794
2664000000.0 -0.030371239276960293 -0.09611995584718068
2666000000.0 -0.03159186960703488 -0.09730371880803616
2668000000.0 -0.03323840416934653 -0.09837122075640553
2670000000.0 -0.03505997255169463 -0.09915274866583755
2672000000.0 -0.038029201643794086 -0.0991117417781029
2674000000.0 -0.04089191329452219 -0.09876629115628256
2676000000.0 -0.043812884750957244 -0.09851207502267674
2678000000.0 -0.047668813905027835 -0.09786693845910788
2680000000.0 -0.051110644739134625 -0.09666511244848029
2682000000.0 -0.05484472190544988 -0.09558588778930474
2684000000.0 -0.05878611818574782 -0.09505192250220257
2686000000.0 -0.06289591580219492 -0.09480492697678045
2688000000.0 -0.06756111429355607 -0.09462353688356755
2690000000.0 -0.07300398738450668 -0.09458471791481292
2692000000.0 -0.07898455029060651 -0.09397730220012264
2694000000.0 -0.08518736840645784 -0.09334369366627798
2696000000.0 -0.09162525570336665 -0.09252859522575688
2698000000.0 -0.09759721183172308 -0.0908505366192928
2700000000.0 -0.10309882300849829 -0.08882168782442146
2702000000.0 -0.10801339848680919 -0.08716362283580194
2704000000.0 -0.11249666519397854 -0.0852794960128541
2706000000.0 -0.11648994032572385 -0.0839734274207773
2708000000.0 -0.12023534389647035 -0.08265891584907487
2710000000.0 -0.12314157340458637 -0.08115887799943412
2712000000.0 -0.12580489025222075 -0.07990584535093527
2714000000.0 -0.1271036275719224 -0.079217964651107
2716000000.0 -0.1278963456303437 -0.07876218894086107
2718000000.0 -0.12832197248632385 -0.07923193012128503
2720000000.0 -0.12814566982144437 -0.08040390876105412
2722000000.0 -0.12809964884854508 -0.0824141873889259
2724000000.0 -0.12834003332023294 -0.08486957630056732
2726000000.0 -0.12868116381639896 -0.08755075318759147
2728000000.0 -0.129165768626935 -0.09009842062262442
2730000000.0 -0.13000691138716688 -0.09280840440452466
2732000000.0 -0.1312269744384329 -0.09515727773477943
2734000000.0 -0.1327149845421883 -0.09731571262918186
2736000000.0 -0.13375777648776951 -0.09802813074471176
2738000000.0 -0.1355479504962009 -0.09900566586428569
2740000000.0 -0.13664987262891873 -0.09905183576083065
2742000000.0 -0.13758115072005214 -0.0988630380645664
2744000000.0 -0.13862491062321025 -0.09788264884319467
2746000000.0 -0.1395215656246128 -0.09658747960529457
2748000000.0 -0.14074983449031186 -0.09471463825576844
2750000000.0 -0.14173094259941146 -0.09253139118660948
2752000000.0 -0.142585349409892 -0.08887314462991282
2754000000.0 -0.14270307770432963 -0.08542924282289835
2756000000.0 -0.14255933137089377 -0.08072123720534434
2758000000.0 -0.14140597975920693 -0.07664981787350568
2760000000.0 -0.14050086307987367 -0.0729573236247321
2762000000.0 -0.13936105723052072 -0.06964002637056312
2764000000.0 -0.13814955155742634 -0.06668218344795822
2766000000.0 -0.13789841158376748 -0.06354324800863918
2768000000.0 -0.13760318291208795 -0.06056944724727129
2770000000.0 -0.13746924483072645 -0.057762595699623706
2772000000.0 -0.13767250889228258 -0.055398637287692794
2774000000.0 -0.1380133612074807 -0.05349102624147222
2776000000.0 -0.1393622949235305 -0.052191991414241946
2778000000.0 -0.14109141845091627 -0.05117770537831218
2780000000.0 -0.14320177013529917 -0.049771242088616725
2782000000.0 -0.14583784435215882 -0.048605583124775704
2784000000.0 -0.1488453180886402 -0.04784305264652648
2786000000.0 -0.15189652685401606 -0.04747693775925662
2788000000.0 -0.1552800346628051 -0.046845477920484005
2790000000.0 -0.15911937845168012 -0.04675168923628663
2792000000.0 -0.16341202658231624 -0.046734406704030604
2794000000.0 -0.16766750186254067 -0.0461683838220295
2796000000.0 -0.17197672264210598 -0.04566734409284317
2798000000.0 -0.17596792587058938 -0.044811041911168
2800000000.0 -0.179674205038228 -0.044394761665537526
2802000000.0 -0.1829850483019163 -0.04386931800682528
2804000000.0 -0.18651559803824602 -0.04358851060569584
2806000000.0 -0.18996280291992015 -0.04312900184667487
2808000000.0 -0.19297948320247135 -0.042796840868250384
2810000000.0 -0.19618740806624552 -0.0423708169116982
2812000000.0 -0.19871278785840155 -0.04198935698975537
2814000000.0 -0.20137558874358685 -0.04111407205898513
2816000000.0 -0.2036680285937148 -0.04033209241841553
2818000000.0 -0.2050984854994554 -0.039144567035802186
2820000000.0 -0.20714503193898237 -0.03783455705270095
2822000000.0 -0.20762252330919959 -0.036852780474376796
2824000000.0 -0.2077062786701983 -0.035508751476345114
2826000000.0 -0.20805768770163344 -0.034301999218015335
2828000000.0 -0.20737447597396053 -0.03272189084866307
2830000000.0 -0.2065370657072361 -0.03168131984791854
2832000000.0 -0.20539428933976764 -0.031065916366853873
2834000000.0 -0.20448954704590433 -0.030286056549164504
2836000000.0 -0.20307833401597383 -0.029636488295066998
2838000000.0 -0.20235021430097713 -0.02905277934887024
2840000000.0 -0.20125472385260273 -0.028567032212383825
2842000000.0 -0.20072783710161138 -0.027848917365668212
2844000000.0 -0.20048116150344802 -0.026385431962292843
2846000000.0 -0.20112079479643552 -0.024412017448818185
2848000000.0 -0.20149793463241872 -0.02215583111443985
2850000000.0 -0.2019817908889528 -0.019046887364533367
2852000000.0 -0.2025469817122347 -0.015409662783614714
2854000000.0 -0.203348921802629 -0.011859457483856577
2856000000.0 -0.20430154473510176 -0.006887092038439228
2858000000.0 -0.20510481725629043 -0.0014143307987250218
2860000000.0 -0.20597104262093371 0.004498862034363606
2862000000.0 -0.20641712985481583 0.011057155515643572
2864000000.0 -0.20671416583537036 0.018112244967132488
2866000000.0 -0.20662361718613162 0.025206023902618474
2868000000.0 -0.2058460506204417 0.03261551556904102
2870000000.0 -0.20437024753409805 0.03915443430227176
2872000000.0 -0.2027574826991571 0.0452756853229833
2874000000.0 -0.2010905944676244 0.05062903933409241
2876000000.0 -0.19987739274893512 0.05551696745790279
2878000000.0 -0.19916145477916777 0.05993766080684331
2880000000.0 -0.19861543015850514 0.06452912397611403
2882000000.0 -0.19840707033147947 0.06857410286353381
2884000000.0 -0.1980572786139794 0.07276700595226886
2886000000.0 -0.1976997552263681 0.0767552245749952
2888000000.0 -0.19731594773208366 0.0802904861162772
2890000000.0 -0.19674852212214441 0.08354513338390095
2892000000.0 -0.19633412405158274 0.08630810331466852
2894000000.0 -0.19559664340324895 0.08926225601284889
2896000000.0 -0.19508440912783065 0.09143701735241345
2898000000.0 -0.19417866352296473 0.09335428151033984
2900000000.0 -0.19310230821732724 0.09489254797561658
2902000000.0 -0.19228366743620956 0.09594188320853245
2904000000.0 -0.1911327156231927 0.09642834974470821
2906000000.0 -0.19060118309313784 0.09738450559205283
2908000000.0 -0.18911267418214156 0.09756356496840687
2910000000.0 -0.18799914902744105 0.09814105827278939
2912000000.0 -0.18657549506654206 0.09860467313482316
2914000000.0 -0.1847861883860354 0.09888602847780054
2916000000.0 -0.1829562575006487 0.09959765432261387
2918000000.0 -0.18092578272629595 0.10047711364833525
2920000000.0 -0.1784429044969541 0.10159964257932895
2922000000.0 -0.1752430011376447 0.10342536937570206
2924000000.0 -0.17112392555051092 0.10484033424671853
2926000000.0 -0.1666679638049225 0.1063972037583324
2928000000.0 -0.1616324979106537 0.10795400377929412
2930000000.0 -0.1561311880483267 0.1092499981843988
2932000000.0 -0.15034125562388068 0.11096495823660489
2934000000.0 -0.1436473457052626 0.11250701839029258
2936000000.0 -0.13712842865529137 0.11361488342309155
2938000000.0 -0.12992224401031194 0.11460275014726966
2940000000.0 -0.12260602650653704 0.11556747353563827
2942000000.0 -0.11483102046274603 0.11573182200585191
2944000000.0 -0.10788122618577016 0.11557659365932249
2946000000.0 -0.101374851533497 0.11528552686252226
2948000000.0 -0.09565458649251536 0.11468535073123826
2950000000.0 -0.09040375290831791 0.1145942330271655
2952000000.0 -0.08564807018318689 0.11516485891365588
2954000000.0 -0.08101545957225256 0.11558261179979518
2956000000.0 -0.07663050225615403 0.11634724903728792
2958000000.0 -0.07246312749163768 0.11674319367117385
2960000000.0 -0.06865317535548085 0.1172839620832866
2962000000.0 -0.06506516591944388 0.1177050983467532
2964000000.0 -0.06158227846686654 0.11764658115820328
2966000000.0 -0.05880122022926655 0.11725557491313092
2968000000.0 -0.05649833037403908 0.11672358052901194
2970000000.0 -0.0548478346148486 0.11632152906007114
2972000000.0 -0.05342274028869425 0.1160229610454583
2974000000.0 -0.052437708799422694 0.11600848641050425
2976000000.0 -0.05098176749920135 0.11639683624697622
2978000000.0 -0.04970173606658938 0.11622295419363717
2980000000.0 -0.04800300573966957 0.11619484670022813
2982000000.0 -0.04585669775002159 0.11586652959030272
2984000000.0 -0.043485348590044416 0.11425776762034404
2986000000.0 -0.04084537869070768 0.11259242188266468
2988000000.0 -0.03843185554671662 0.10964455168670102
2990000000.0 -0.03623753614614328 0.10648293710674288
2992000000.0 -0.0343399748572281 0.10284430245612582
2994000000.0 -0.03250463149865289 0.09884578769419991
2996000000.0 -0.030690850724468102 0.09487892744778634
2998000000.0 -0.028585871741137667 0.09051248418217138
3000000000.0 -0.02622067505997487 0.08575166291947575
3002000000.0 -0.02365040965132039 0.0802517268349993
3004000000.0 -0.021065412732672224 0.07434933591213874
3006000000.0 -0.01890632452666296 0.06813368127277157
3008000000.0 -0.017041408319253614 0.06176184967209441
3010000000.0 -0.015344445180823917 0.055442631607347595
3012000000.0 -0.013761521498180773 0.049346971390921666
3014000000.0 -0.011726462160970126 0.043459737227249086
3016000000.0 -0.00958995149689684 0.03751421447209876
3018000000.0 -0.00764899533997967 0.03146838501154965
3020000000.0 -0.005979649077963319 0.02545176154922604
3022000000.0 -0.004321059341634122 0.01974320642528649
3024000000.0 -0.0028389960855857185 0.01420265418055701
3026000000.0 -0.0014286145375475548 0.009350819008520127
3028000000.0 -9.855483502800568e-05 0.004842518781635033
3030000000.0 0.0011147312496126655 0.000453082491701432
3032000000.0 0.00246816128062333 -0.0039854014394601345
3034000000.0 0.0034019068951874846 -0.007993728692504655
3036000000.0 0.004067370223272749 -0.011736901924234811
3038000000.0 0.004029850222914765 -0.01503692301033031
3040000000.0 0.0037275018117917703 -0.017527720171126814
3042000000.0 0.0032564145619164223 -0.01934624722626638
3044000000.0 0.0026915485647047576 -0.02062337621886549
3046000000.0 0.003092464598967066 -0.021306696492124574
3048000000.0 0.003219846543158916 -0.022304030631062538
3050000000.0 0.003564180162761693 -0.022955520032827005
3052000000.0 0.004136911525438746 -0.02432044167332743
3054000000.0 0.0045267383111964495 -0.026020896228409068
3056000000.0 0.004236458051602215 -0.027600115135277454
3058000000.0 0.0037900804005405013 -0.03027304120686599
3060000000.0 0.0027565680934554877 -0.032932958067055255
3062000000.0 0.0009234033075123194 -0.036213865882937
3064000000.0 -0.0013933160814844207 -0.03918124527165056
3066000000.0 -0.004305229562873968 -0.04196938471042107
3068000000.0 -0.007606136586672209 -0.04541442297275335
3070000000.0 -0.011248738068574633 -0.048348615831422456
3072000000.0 -0.015312106541777396 -0.052221918248830615
3074000000.0 -0.019977040974772525 -0.0553901133766318
3076000000.0 -0.024890380874360064 -0.059205413859313764
3078000000.0 -0.03004459903458163 -0.06260176591372131
3080000000.0 -0.035288104104655195 -0.06615149879892442
3082000000.0 -0.040626840972623014 -0.06913762531031362
3084000000.0 -0.04575017248584349 -0.0723408184198606
3086000000.0 -0.0509299346288269 -0.07571919671420811
3088000000.0 -0.05556704809467552 -0.07912960781374213
3090000000.0 -0.06040928242613755 -0.08271026089387207
3092000000.0 -0.06525251796376068 -0.0859494433340462
3094000000.0 -0.06973833296363308 -0.08910558618354938
3096000000.0 -0.07421168869390882 -0.09267272686236004
3098000000.0 -0.07857819689020513 -0.09631485506148338
3100000000.0 -0.08286901479025 -0.09975907255584204
3102000000.0 -0.08761498743429548 -0.10311486310843888
3104000000.0 -0.09246560966004543 -0.10599781242073608
3106000000.0 -0.09695799124292745 -0.10829461870227483
3108000000.0 -0.10164986704118555 -0.11021656691586865
3110000000.0 -0.10574330625072344 -0.11109447624119419
3112000000.0 -0.10936161566650617 -0.11154824807308003
3114000000.0 -0.11191225513386913 -0.11205013409149532
3116000000.0 -0.11440243142493241 -0.11228545707447021
3118000000.0 -0.11552928460372186 -0.11257588472772667
3120000000.0 -0.11698968016600593 -0.11324596896309967
3122000000.0 -0.11779330245817847 -0.11416862938598235
3124000000.0 -0.11930526340435797 -0.1151222916218393
3126000000.0 -0.12055276510485655 -0.11549968306313071
3128000000.0 -0.12204888165215998 -0.11655578913466583
3130000000.0 -0.1239996365152857 -0.11711920264406471
3132000000.0 -0.12599871825709702 -0.11739138909355255
3134000000.0 -0.12810848431875263 -0.1172469291607974
3136000000.0 -0.13044028879415587 -0.1172043329049539
3138000000.0 -0.1330846770509282 -0.11645911301893619
3140000000.0 -0.1357800109764876 -0.1156272486247335
3142000000.0 -0.13899902763978672 -0.11469422044989507
3144000000.0 -0.1418291947956519 -0.11292072264969061
3146000000.0 -0.14526472302823343 -0.11154183016708462
3148000000.0 -0.1489471407574824 -0.10948587578962149
3150000000.0 -0.15307894447692708 -0.10726512114226718
3152000000.0 -0.15753686595792338 -0.1047237962498538
3154000000.0 -0.1622336014882424 -0.10177248249775182
3156000000.0 -0.1670376959748525 -0.09842846723021213
3158000000.0 -0.17189714245117882 -0.0947709478663215
3160000000.0 -0.1766488598428435 -0.09065970602877588
3162000000.0 -0.18118089596814146 -0.08659326430204546
3164000000.0 -0.18543589611860392 -0.08259876619684009
3166000000.0 -0.18968156965270128 -0.0785982117310115
3168000000.0 -0.193751804351533 -0.07512972884633244
3170000000.0 -0.1981790232649608 -0.07184819918093216
3172000000.0 -0.20242593620077234 -0.06887557316616055
3174000000.0 -0.2070474027992065 -0.06576077275296524
3176000000.0 -0.21178012606040952 -0.0628841684602722
3178000000.0 -0.2162234971970767 -0.059274162783999676
3180000000.0 -0.22004975483797157 -0.055880634595509224
3182000000.0 -0.2233519956335927 -0.0525185357410891
3184000000.0 -0.22557638945724554 -0.0499754143588672
3186000000.0 -0.22794314351760903 -0.04785896797425447
3188000000.0 -0.23003905480260278 -0.046642325978790124
3190000000.0 -0.23215073382395426 -0.04594385963949967
3192000000.0 -0.23468509405413543 -0.045383305004003234
3194000000.0 -0.23718679923756675 -0.04480667521064415
3196000000.0 -0.2395391183259651 -0.044845873977010266
3198000000.0 -0.24242704576999738 -0.04400255764009973
3200000000.0 -0.24508973186940272 -0.04323531074001464
3202000000.0 -0.24715482764545393 -0.041935049364263385
3204000000.0 -0.24922266550366673 -0.04036766064694178
3206000000.0 -0.2507651784151832 -0.03875302960437581
3208000000.0 -0.25214944554889956 -0.03641734984986941
3210000000.0 -0.2528951582672915 -0.03422993580789745
3212000000.0 -0.25351537053273787 -0.03211666726714511
3214000000.0 -0.2532905190275203 -0.02951514477239935
3216000000.0 -0.2533583383627277 -0.02730900859507579
3218000000.0 -0.2529318104937849 -0.024288701637619016
3220000000.0 -0.2525244996603197 -0.021581694037857473
3222000000.0 -0.25190124728659746 -0.01808553202801918
3224000000.0 -0.2509180031370259 -0.014641200994392962
3226000000.0 -0.24959386480897738 -0.011032435066434183
