! Created with skrf (http://scikit-rf.org).
# Hz S RI R 50.0 
!freq ReS11 ImS11
2500000000.0 -0.19155007970091684 0.008297555563439337
2502000000.0 -0.19129239917667298 0.014635723743811644
2504000000.0 -0.19112116813878607 0.020545472833711123
2506000000.0 -0.1905812079695736 0.0261544828796812
2508000000.0 -0.1899730565102776 0.03144705983263029
2510000000.0 -0.1888532178280357 0.03614431745741196
2512000000.0 -0.18776740293046768 0.04100603515452253
2514000000.0 -0.18615516221806694 0.044935933603059294
2516000000.0 -0.18436542025119823 0.04875553616371889
2518000000.0 -0.18202084367868074 0.051924943579630685
2520000000.0 -0.17956471597709509 0.05505109341265961
2522000000.0 -0.17685493208840178 0.057891272900509244
2524000000.0 -0.17328553409197128 0.060140172363802015
2526000000.0 -0.16929501391434337 0.06183710339064531
2528000000.0 -0.16465359899563378 0.06310565458763068
2530000000.0 -0.15940548963440085 0.06358122836307706
2532000000.0 -0.15413809952558435 0.06347205787062636
2534000000.0 -0.14854810543673386 0.062377738089614596
2536000000.0 -0.14323751575201463 0.061155123716768144
2538000000.0 -0.13795313638206522 0.05915633567404343
2540000000.0 -0.1326958929140358 0.05719821420213156
2542000000.0 -0.127970008543373 0.0547892295618753
2544000000.0 -0.12306558995992742 0.052472977064892234
2546000000.0 -0.11898758207776987 0.050179183903486066
2548000000.0 -0.11492967877662211 0.04821631539617298
2550000000.0 -0.110981947953026 0.046835321948415116
2552000000.0 -0.10728521624199387 0.0456345327222794
2554000000.0 -0.10363627527987254 0.04485086628567382
2556000000.0 -0.0999985731864992 0.044811038683926434
2558000000.0 -0.09617148536152491 0.045165537783565614
2560000000.0 -0.09211239633856352 0.04570230182282614
2562000000.0 -0.08798548566350377 0.046076331667426425
2564000000.0 -0.08331797386431317 0.04697721684522342
2566000000.0 -0.07933723478993109 0.04743225313396526
2568000000.0 -0.07530984144988805 0.04798268457129539
2570000000.0 -0.07161721018375525 0.04867399762080319
2572000000.0 -0.06830869421923098 0.04994266096814447
2574000000.0 -0.06482543910241025 0.05129806725891701
2576000000.0 -0.06104656935857597 0.05281170848780527
2578000000.0 -0.05696821762148375 0.05463701698465538
2580000000.0 -0.052261558473531124 0.055415405879174304
2582000000.0 -0.0480211931216819 0.05566299106313956
2584000000.0 -0.04393052425546937 0.054910912224930004
2586000000.0 -0.040505833605766456 0.05363131021613391
2588000000.0 -0.037749270845658434 0.0518078897560083
2590000000.0 -0.03576427515827749 0.049726392162860254
2592000000.0 -0.03432621836428742 0.047325053185610026
2594000000.0 -0.03398672800501657 0.04461308561369438
2596000000.0 -0.03386954218573662 0.042011683096247435
2598000000.0 -0.033915352357652764 0.039361211827825315
2600000000.0 -0.0344549660545895 0.03643504484945287
2602000000.0 -0.035066705654036655 0.0334941344548974
2604000000.0 -0.035853725545735265 0.030060882304862178
2606000000.0 -0.03678026508652247 0.0264460108305952
2608000000.0 -0.03790674940578473 0.021964342488083443
2610000000.0 -0.03930511726257407 0.01775446871053097
2612000000.0 -0.041069795609063084 0.01332727957297007
2614000000.0 -0.04305378429072915 0.008396097773070285
2616000000.0 -0.04524118702145986 0.004083632870489201
2618000000.0 -0.0474025099460209 -0.00015351072010674175
2620000000.0 -0.049773732577520303 -0.004310510893094543
2622000000.0 -0.05184899258091819 -0.007985875150163772
2624000000.0 -0.05312196193714182 -0.01163642290917224
2626000000.0 -0.0543368740857223 -0.015145606074975204
2628000000.0 -0.05490049925572284 -0.018748990155405553
2630000000.0 -0.05507585213219401 -0.0224266374489674
2632000000.0 -0.055499189877355935 -0.02648368411805553
2634000000.0 -0.055856264943179565 -0.030413895942647293
2636000000.0 -0.056539427023249496 -0.03463025138015003
2638000000.0 -0.05688924276736473 -0.038210017327740556
2640000000.0 -0.05768134742762244 -0.04142277468947512
2642000000.0 -0.05838821355598823 -0.044372598902028756
2644000000.0 -0.059009457883246484 -0.0467877304030269
2646000000.0 -0.05931330730331344 -0.04839131168996169
2648000000.0 -0.05956595269535207 -0.05040501534024082
2650000000.0 -0.05960572433699322 -0.05184218266171156
2652000000.0 -0.05993717313641447 -0.05337297091942658
2654000000.0 -0.06062504716408241 -0.05487741083930026
2656000000.0 -0.06133332050402174 -0.055344254309615176
2658000000.0 -0.06238409402558001 -0.05596806029079483
2660000000.0 -0.06360381720068663 -0.05596589218022117
2662000000.0 -0.06526742345267336 -0.05522955693673061
2664000000.0 -0.06666993001890903 -0.05423760713100384
2666000000.0 -0.0681119366389633 -0.052961904310733
2668000000.0 -0.06987027610752658 -0.051373027980707066
2670000000.0 -0.07210621564838869 -0.049588874404798054
2672000000.0 -0.0742549435938264 -0.04776103708241478
2674000000.0 -0.07663494831523784 -0.04574172159811314
2676000000.0 -0.07929366973415312 -0.04347658620577044
2678000000.0 -0.08204861876491619 -0.04120507290523983
2680000000.0 -0.08534045617823309 -0.038696211994767436
2682000000.0 -0.08865594945535629 -0.03586644389494588
2684000000.0 -0.09157962836177562 -0.03278094647133813
2686000000.0 -0.09477320026542879 -0.029553701097418263
2688000000.0 -0.09764158128084768 -0.02659643965937632
2690000000.0 -0.09963562532055396 -0.023220864648365352
2692000000.0 -0.10144168850201761 -0.020749067964046436
2694000000.0 -0.10299312218675563 -0.018806710889008434
2696000000.0 -0.10445085001399596 -0.017435105472688017
2698000000.0 -0.10592360833445195 -0.016717092078354208
2700000000.0 -0.10743933563819326 -0.016436166930392546
2702000000.0 -0.1089713449358203 -0.015865749002386704
2704000000.0 -0.11044753174516393 -0.0162431373599636
2706000000.0 -0.11173407122535553 -0.016755299410369313
2708000000.0 -0.11263966388671472 -0.01719952998819672
2710000000.0 -0.11349398835120399 -0.018090587039625072
2712000000.0 -0.11413765387271431 -0.019715747003920016
2714000000.0 -0.11480074365289404 -0.02152941958735649
2716000000.0 -0.11513521207025951 -0.02375575950607562
2718000000.0 -0.11603788319581704 -0.026501420520701358
2720000000.0 -0.11725946087921699 -0.02983993337975146
2722000000.0 -0.11949292058613056 -0.03193121807900011
2724000000.0 -0.12157835653075579 -0.03387632309556866
2726000000.0 -0.1233397182000277 -0.03507461738522049
2728000000.0 -0.1253752261166822 -0.03518815787135008
2730000000.0 -0.1255860261202353 -0.03503513306483711
2732000000.0 -0.12570651333758032 -0.03460843894090438
2734000000.0 -0.12478428487885794 -0.03390750201192392
2736000000.0 -0.12348896958026 -0.03403783945442311
2738000000.0 -0.12207055139848173 -0.0339346441683041
2740000000.0 -0.12090756001123515 -0.03419702907349807
2742000000.0 -0.11968396402680559 -0.034211762682270004
2744000000.0 -0.11858070770337784 -0.03391006408001645
2746000000.0 -0.1174863380438299 -0.03348767159613329
2748000000.0 -0.11627000911788299 -0.03206502352531043
2750000000.0 -0.11454726877441511 -0.030667626807028347
2752000000.0 -0.1126691221259664 -0.029442762638431777
2754000000.0 -0.11066486734917379 -0.02789997351433127
2756000000.0 -0.10837164295504324 -0.026624085030576748
2758000000.0 -0.10681259197081917 -0.025024934482208328
2760000000.0 -0.10529177757637216 -0.024516172013477416
2762000000.0 -0.10395182725494793 -0.023564311962686647
2764000000.0 -0.10346041279013095 -0.022934265356973963
2766000000.0 -0.10325494241697929 -0.022278772146525037
2768000000.0 -0.10402108199647238 -0.02164693250277634
2770000000.0 -0.105148137476455 -0.020405858321164223
2772000000.0 -0.10676958417973542 -0.01897713752867536
2774000000.0 -0.10868795845507001 -0.016753695614364017
2776000000.0 -0.11037054988749749 -0.014616547735792792
2778000000.0 -0.11189714289467577 -0.012385600603669097
2780000000.0 -0.11361187692365142 -0.010042105138694555
2782000000.0 -0.11488484378938246 -0.00815385639265243
2784000000.0 -0.11635908613972618 -0.006718845173715079
2786000000.0 -0.11820073885193837 -0.005660349234801927
2788000000.0 -0.12030548103389573 -0.005157103561033755
2790000000.0 -0.12273225131856799 -0.004680186988005748
2792000000.0 -0.12554938707447727 -0.004370769969268382
2794000000.0 -0.12829401125056067 -0.00430437033460343
2796000000.0 -0.13134444771296178 -0.004253390748809167
2798000000.0 -0.13417281862896419 -0.003920424761718657
2800000000.0 -0.13687388256263713 -0.004148048158933438
2802000000.0 -0.13953640396820122 -0.004011634657872308
2804000000.0 -0.14153477289022684 -0.004606825899231288
2806000000.0 -0.14367733792988166 -0.005624662254945148
2808000000.0 -0.14572965529301446 -0.006450255942679514
2810000000.0 -0.14779278545738336 -0.007638753000859993
2812000000.0 -0.14930546842194017 -0.008953905404220383
2814000000.0 -0.15098332885362212 -0.010601117631832236
2816000000.0 -0.15251129932124 -0.012303148900897376
2818000000.0 -0.15394711704248018 -0.01394492611704784
2820000000.0 -0.15525519117457764 -0.015754087314777936
2822000000.0 -0.15658870640590122 -0.017707586733389923
2824000000.0 -0.1583382914875725 -0.01904717424708031
2826000000.0 -0.16009369512809007 -0.02099067836566497
2828000000.0 -0.16223217453533692 -0.021663995279416638
2830000000.0 -0.1646357233880332 -0.021934255081473886
2832000000.0 -0.16654280873024746 -0.020943898523437764
2834000000.0 -0.16813051552313554 -0.019546906793015132
2836000000.0 -0.16981710145524823 -0.01754601820850741
2838000000.0 -0.17048902505970837 -0.014668757239314663
2840000000.0 -0.1711543607508349 -0.0110491425596361
2842000000.0 -0.17129616075334456 -0.0070406573968258826
2844000000.0 -0.17046286786471293 -0.0025620720771463218
2846000000.0 -0.1692278506061003 0.002120000840532744
2848000000.0 -0.16758297830807242 0.006896396316746203
2850000000.0 -0.1659833353704598 0.011275672372269306
2852000000.0 -0.16392480901951045 0.015679950832220776
2854000000.0 -0.16229769349021136 0.01992143239627504
2856000000.0 -0.16073321124150142 0.024652193089338408
2858000000.0 -0.15889786607279582 0.028856511662494463
2860000000.0 -0.15714891639551384 0.03297573227037203
2862000000.0 -0.15588717011653733 0.037226433167267696
2864000000.0 -0.1545202983971076 0.041387264592491216
2866000000.0 -0.15351725356805582 0.04520362082618233
2868000000.0 -0.15252167438000622 0.04950205044613082
2870000000.0 -0.1521474427710776 0.05306567250884901
2872000000.0 -0.1516197291776115 0.056798807447054116
2874000000.0 -0.15149422439053328 0.06036353184550613
2876000000.0 -0.15150661242246807 0.06373099392386715
2878000000.0 -0.15238661753804073 0.06692193681597487
2880000000.0 -0.15279487035106043 0.07032266670178562
2882000000.0 -0.1537150364097965 0.07350740146125846
2884000000.0 -0.1547884070614962 0.07670105435267688
2886000000.0 -0.15602868158306207 0.07948508570019475
2888000000.0 -0.15680044252683456 0.0823816679663081
2890000000.0 -0.1577827410990039 0.0851858700483536
2892000000.0 -0.15835473634495512 0.08754463302302438
2894000000.0 -0.159018054822536 0.0900255954795133
2896000000.0 -0.15991684547297555 0.09228983982180955
2898000000.0 -0.16020550324995741 0.0944300509420955
2900000000.0 -0.16060549039701394 0.09688205462232254
2902000000.0 -0.16056550669481157 0.09916534541631705
2904000000.0 -0.1596084356836617 0.10163613839353151
2906000000.0 -0.1581423549810076 0.10377342837668879
2908000000.0 -0.15639126234421794 0.10594861076832052
2910000000.0 -0.15403946818640163 0.10764473072425498
2912000000.0 -0.1510052675604239 0.10966830263127747
2914000000.0 -0.1472429180400119 0.11094034215564967
2916000000.0 -0.14323299744102866 0.11175031192455276
2918000000.0 -0.13861696299902523 0.1125366074836772
2920000000.0 -0.1338369993015324 0.11329700803067792
2922000000.0 -0.12806661178816117 0.11396831035891485
2924000000.0 -0.12247432578756971 0.11442553708713517
2926000000.0 -0.11654251390134023 0.11416131163445671
2928000000.0 -0.11027586862840416 0.11408759450130719
2930000000.0 -0.10388076792500299 0.11351449255696575
2932000000.0 -0.09761390128476859 0.11293377793729877
2934000000.0 -0.0914890651220659 0.11215812301525624
2936000000.0 -0.08578826220620048 0.11089973201324259
2938000000.0 -0.08036893690527547 0.11031083320639805
2940000000.0 -0.07551349399007809 0.10992673910678974
2942000000.0 -0.07089183077972061 0.11022898237763167
2944000000.0 -0.06610976291020268 0.11078981455776679
2946000000.0 -0.06144183788350926 0.11166882012026529
2948000000.0 -0.05627704574909763 0.11268987687982976
2950000000.0 -0.05122453148367046 0.11419180953501773
2952000000.0 -0.045940962835618555 0.11494385043787042
2954000000.0 -0.0410872642547342 0.11595547934942767
2956000000.0 -0.03601281641041823 0.1167990756757886
2958000000.0 -0.03152458569477538 0.11715144921513909
2960000000.0 -0.027111185536787007 0.1178713435822431
2962000000.0 -0.022890991410967804 0.11804694969287458
2964000000.0 -0.01963051566056035 0.1180114826722324
2966000000.0 -0.01637352048782912 0.11800477384070793
2968000000.0 -0.013562377560828636 0.11786770745057144
2970000000.0 -0.01089668415037294 0.11780853141688695
2972000000.0 -0.008518560204041037 0.11748264439376566
2974000000.0 -0.005937801520842047 0.11722009190623192
2976000000.0 -0.0029459236809003283 0.11642647695688048
2978000000.0 -0.000454866100280682 0.11477254803256244
2980000000.0 0.0019062941154146754 0.11259744397678711
2982000000.0 0.0038907790990845023 0.11005346261296095
2984000000.0 0.00522490150931671 0.10701724393503324
2986000000.0 0.007017847360650178 0.10367888450975625
2988000000.0 0.008496842670203071 0.10047187487606717
2990000000.0 0.009883322819339227 0.09720587971393257
2992000000.0 0.011792898294742112 0.09348299053042272
2994000000.0 0.013874496152389127 0.08909513197307178
2996000000.0 0.016357621375256003 0.08468291942142833
2998000000.0 0.018582988146948923 0.07973480424451515
3000000000.0 0.020831359268320793 0.07459517211801367
3002000000.0 0.02322461721807397 0.06917972791507845
3004000000.0 0.026407555414678197 0.06320678755347323
3006000000.0 0.029085726514322983 0.056876483261677484
3008000000.0 0.03210524694354778 0.04976891479631938
3010000000.0 0.034859221172460014 0.042668232528530504
3012000000.0 0.03704756277869298 0.034653507430574555
3014000000.0 0.03851583896291976 0.027018128833206458
3016000000.0 0.03979186488705335 0.01952479363476892
3018000000.0 0.041065955059677216 0.012459261148558188
3020000000.0 0.042245573107887735 0.005531053587883584
3022000000.0 0.043493248380797704 -0.0015293636975678441
3024000000.0 0.04448468052092536 -0.008323650889624125
3026000000.0 0.045042504878410154 -0.015199410208567424
3028000000.0 0.045050562771512634 -0.02140116660700272
3030000000.0 0.04459983705667246 -0.027253058169574806
3032000000.0 0.04387129270929829 -0.0323420836303228
3034000000.0 0.04320943249256839 -0.03693394333007866
3036000000.0 0.04272434415114238 -0.04084129756685468
3038000000.0 0.04185949023773193 -0.04373697759697193
3040000000.0 0.04165565300222583 -0.04683541849868421
3042000000.0 0.04141670066670853 -0.049383993301315786
3044000000.0 0.04105792555880601 -0.05195601917658766
3046000000.0 0.040549964659494654 -0.05436986684963464
3048000000.0 0.04019075995674353 -0.05682859182288591
3050000000.0 0.039438164588067696 -0.05965263899843657
3052000000.0 0.038137934828122076 -0.061946692298212744
3054000000.0 0.036362487271241924 -0.06463481141425996
3056000000.0 0.03392553220141596 -0.06657630370025233
3058000000.0 0.031384345746426186 -0.06867393262284703
3060000000.0 0.028364599716623157 -0.07056412395535551
3062000000.0 0.025209641310559534 -0.07195163565604298
3064000000.0 0.02204463057467146 -0.07346130060709911
3066000000.0 0.01890379601057826 -0.07473938424548264
3068000000.0 0.015535577065810347 -0.07663474442106206
3070000000.0 0.012505216826327296 -0.07813201598789238
3072000000.0 0.009175131288223781 -0.08005978625064612
3074000000.0 0.0058628637024523145 -0.08278785486653177
3076000000.0 0.0025427858137159467 -0.08538740997995972
3078000000.0 -0.0011632412461419685 -0.08917361051638242
3080000000.0 -0.005272340177520689 -0.09301597920513316
3082000000.0 -0.010070526499355938 -0.0973046104982811
3084000000.0 -0.015313432644849091 -0.10178887809723496
3086000000.0 -0.020985005749094 -0.10587736376706465
3088000000.0 -0.02718491520235441 -0.10992364351695516
3090000000.0 -0.03364391191725024 -0.11368187105220862
3092000000.0 -0.03978618148642891 -0.1170685749603573
3094000000.0 -0.04605696481326893 -0.12025891797840216
3096000000.0 -0.0525579158117241 -0.12293180059536407
3098000000.0 -0.05813745012018657 -0.12553584397342774
3100000000.0 -0.06354342916887956 -0.1279369080438663
3102000000.0 -0.06877168058766273 -0.1299433535855369
3104000000.0 -0.07349962483866619 -0.13199412491227977
3106000000.0 -0.07786774072875478 -0.133777036421767
3108000000.0 -0.08213429675832784 -0.13518503630211612
3110000000.0 -0.08546540444708435 -0.1365465158013321
3112000000.0 -0.08844803504489185 -0.1376954275272153
3114000000.0 -0.09134001449207488 -0.13905312848641121
3116000000.0 -0.09395178765493369 -0.13990968419478125
3118000000.0 -0.09624072376009372 -0.14088120706488508
3120000000.0 -0.09864417469721569 -0.14173842660340924
3122000000.0 -0.10082807756143783 -0.14246179576957713
3124000000.0 -0.10304630359999245 -0.1427568709431635
3126000000.0 -0.10542378953234789 -0.14300586209558774
3128000000.0 -0.10749413667121177 -0.14291687678325402
3130000000.0 -0.10978915441348759 -0.14229774462229722
3132000000.0 -0.11196102818131098 -0.14129442282121069
3134000000.0 -0.11380847630062309 -0.14025337243315858
3136000000.0 -0.11589475223493137 -0.13910194901598985
3138000000.0 -0.11797134264457379 -0.13780408192431753
3140000000.0 -0.1205602354535073 -0.1364081891001809
3142000000.0 -0.12337513708418901 -0.13470780742014182
3144000000.0 -0.12638370516503514 -0.1329751514625657
3146000000.0 -0.13019797898484695 -0.13060082708588328
3148000000.0 -0.1335629007360796 -0.12847325360498826
3150000000.0 -0.13763540401586938 -0.12591920979042817
3152000000.0 -0.14157115546685287 -0.12283581996404867
3154000000.0 -0.14568145490429157 -0.11989559358072856
3156000000.0 -0.1498018660740649 -0.11654790124668442
3158000000.0 -0.15357121189175504 -0.11320514747310195
3160000000.0 -0.1576363910220559 -0.10988515341574143
3162000000.0 -0.16113199022761046 -0.10671911134277265
3164000000.0 -0.1650251473685714 -0.10410483494900578
3166000000.0 -0.16881877341348334 -0.1015548093135528
3168000000.0 -0.1731395184960045 -0.09938552645408419
3170000000.0 -0.17720922972571396 -0.09731408030631011
3172000000.0 -0.1817800316093167 -0.09512271208631692
3174000000.0 -0.1862757251351281 -0.09319435417085173
3176000000.0 -0.19081072375827615 -0.09105008316162932
3178000000.0 -0.19534523217987296 -0.08891242521760505
3180000000.0 -0.19927763658562558 -0.0872445666036677
3182000000.0 -0.20304763392145855 -0.0860829094080925
3184000000.0 -0.20653303870430603 -0.08490960255169756
3186000000.0 -0.21039793927876865 -0.08415245211795168
3188000000.0 -0.2142657246475584 -0.08329859311703372
3190000000.0 -0.21809217108542078 -0.08262224771705132
3192000000.0 -0.2213214983746696 -0.08175022595810798
3194000000.0 -0.22511450629543048 -0.08059958015221166
3196000000.0 -0.22843759386820617 -0.07898603659090339
3198000000.0 -0.231154097050522 -0.0768652565773774
3200000000.0 -0.23291322371799508 -0.07476860702839828
3202000000.0 -0.23415440220113795 -0.07234338298471243
3204000000.0 -0.23509014235184797 -0.07009124138050665
3206000000.0 -0.23525207040865256 -0.06790373897861146
3208000000.0 -0.2348887572706679 -0.06590424446800154
3210000000.0 -0.23441191722522606 -0.06415910703854974
3212000000.0 -0.23401885146292256 -0.06232145095472332
3214000000.0 -0.23320329486798563 -0.06049013126666721
3216000000.0 -0.23235577266119234 -0.05845887297319214
3218000000.0 -0.2316121915184121 -0.055933567582373285
3220000000.0 -0.23075579453265654 -0.05373593846400832
3222000000.0 -0.2299262773835648 -0.051191392395118634
3224000000.0 -0.22912219302622303 -0.04866741747409118
3226000000.0 -0.22816139351887682 -0.045646471587588215
