! Created Fri Aug  9 09:20:55 2024
! List of port names and net name(s): example Port n = <port_name> <net_name1> <net_name2> ...
! Port 1 = P1 P2 
! Port 2 = P2 P2 
# hz S ri R 50
! 2 Port Network Data from data block
! freq  reS11  imS11  reS21  imS21  reS12  imS12  reS22  imS22  
!     
             1e+09     0.00520071894      -0.0012846195      -0.0405354849       -0.995667814      -0.0405354849       -0.995667814      0.00520071807      -0.0012845866
         1.005e+09     0.00548554721     -0.00132553097      -0.0486022934       -0.995283903      -0.0486022934       -0.995283903      0.00548554661     -0.00132549795
          1.01e+09     0.00577279783     -0.00137108969      -0.0566662276       -0.994834362      -0.0566662276       -0.994834362      0.00577279749     -0.00137105654
         1.015e+09     0.00606239773     -0.00142135942      -0.0647267517       -0.994319203      -0.0647267517       -0.994319203      0.00606239766     -0.00142132606
          1.02e+09     0.00635427254     -0.00147640261      -0.0727833298       -0.993738445      -0.0727833298       -0.993738445      0.00635427275     -0.00147636909
         1.025e+09     0.00664834651     -0.00153628066      -0.0808354258       -0.993092108      -0.0808354258       -0.993092108      0.00664834699     -0.00153624698
          1.03e+09     0.00694454252     -0.00160105374      -0.0888825035       -0.992380218      -0.0888825035       -0.992380218      0.00694454328     -0.00160101991
         1.035e+09     0.00724278212     -0.00167078079      -0.0969240269       -0.991602806      -0.0969240269       -0.991602806      0.00724278317     -0.00167074681
          1.04e+09     0.00754298555      -0.0017455195       -0.104959459       -0.990759907       -0.104959459       -0.990759907      0.00754298688     -0.00174548538
         1.045e+09     0.00784507172     -0.00182532626       -0.112988266       -0.989851561       -0.112988266       -0.989851561      0.00784507334     -0.00182529201
          1.05e+09     0.00814895829     -0.00191025618        -0.12100991        -0.98887781        -0.12100991        -0.98887781       0.0081489602     -0.00191022179
         1.055e+09     0.00845456164     -0.00200036301       -0.129023855       -0.987838704       -0.129023855       -0.987838704      0.00845456384     -0.00200032849
          1.06e+09     0.00876179693     -0.00209569914       -0.137029566       -0.986734294       -0.137029566       -0.986734294      0.00876179941      -0.0020956645
         1.065e+09      0.0090705773     -0.00219631468       -0.145026507        -0.98556464       -0.145026507        -0.98556464      0.00907058008     -0.00219627992
          1.07e+09     0.00938081556     -0.00230225926       -0.153014142       -0.984329802       -0.153014142       -0.984329802      0.00938081863     -0.00230222439
         1.075e+09     0.00969242408     -0.00241358191       -0.160991937       -0.983029846       -0.160991937       -0.983029846      0.00969242745     -0.00241354692
          1.08e+09      0.0100053133     -0.00253032932       -0.168959357       -0.981664842       -0.168959357       -0.981664842        0.010005317     -0.00253029423
         1.085e+09      0.0103193925      -0.0026525467       -0.176915867       -0.980234865       -0.176915867       -0.980234865       0.0103193965     -0.00265251152
          1.09e+09        0.01063457     -0.00278027775       -0.184860935       -0.978739994       -0.184860935       -0.978739994       0.0106345743     -0.00278024247
         1.095e+09      0.0109507528     -0.00291356461       -0.192794025       -0.977180313       -0.192794025       -0.977180313       0.0109507574     -0.00291352925
           1.1e+09      0.0112678471     -0.00305244789       -0.200714606       -0.975555911       -0.200714606       -0.975555911        0.011267852     -0.00305241244
         1.105e+09       0.011585758     -0.00319696659       -0.208622144        -0.97386688       -0.208622144        -0.97386688       0.0115857632     -0.00319693107
          1.11e+09      0.0119043894     -0.00334715813       -0.216516107       -0.972113318       -0.216516107       -0.972113318       0.0119043949     -0.00334712255
         1.115e+09      0.0122236446      -0.0035030583       -0.224395964       -0.970295326       -0.224395964       -0.970295326       0.0122236505     -0.00350302265
          1.12e+09      0.0125434258     -0.00366470122       -0.232261184        -0.96841301       -0.232261184        -0.96841301       0.0125434319     -0.00366466551
         1.125e+09      0.0128636341     -0.00383211937       -0.240111236       -0.966466483       -0.240111236       -0.966466483       0.0128636406      -0.0038320836
          1.13e+09      0.0131841701     -0.00400534352       -0.247945591       -0.964455857       -0.247945591       -0.964455857       0.0131841768     -0.00400530771
         1.135e+09      0.0135049331     -0.00418440275       -0.255763721       -0.962381254       -0.255763721       -0.962381254       0.0135049401     -0.00418436689
          1.14e+09      0.0138258219     -0.00436932441       -0.263565097       -0.960242798       -0.263565097       -0.960242798       0.0138258293     -0.00436928852
         1.145e+09      0.0141467345     -0.00456013408       -0.271349192       -0.958040616       -0.271349192       -0.958040616       0.0141467422     -0.00456009816
          1.15e+09       0.014467568     -0.00475685559       -0.279115479       -0.955774842       -0.279115479       -0.955774842        0.014467576     -0.00475681964
         1.155e+09      0.0147882188     -0.00495951096       -0.286863434       -0.953445614       -0.286863434       -0.953445614       0.0147882271     -0.00495947504
          1.16e+09      0.0151085826      -0.0051681205       -0.294592531       -0.951053074       -0.294592531       -0.951053074       0.0151085912     -0.00516808452
         1.165e+09      0.0154285545     -0.00538270256       -0.302302247       -0.948597367       -0.302302247       -0.948597367       0.0154285634     -0.00538266657
          1.17e+09      0.0157480288     -0.00560327376       -0.309992061       -0.946078646       -0.309992061       -0.946078646        0.015748038     -0.00560323777
         1.175e+09      0.0160668994     -0.00582984884       -0.317661449       -0.943497065       -0.317661449       -0.943497065        0.016066909     -0.00582981286
          1.18e+09      0.0163850595     -0.00606244068       -0.325309892       -0.940852784       -0.325309892       -0.940852784       0.0163850693     -0.00606240471
         1.185e+09      0.0167024017     -0.00630106027       -0.332936871       -0.938145968       -0.332936871       -0.938145968       0.0167024119     -0.00630102432
          1.19e+09      0.0170188182     -0.00654571672       -0.340541867       -0.935376785       -0.340541867       -0.935376785       0.0170188287     -0.00654568078
         1.195e+09      0.0173342008      -0.0067964172       -0.348124364       -0.932545408       -0.348124364       -0.932545408       0.0173342116      -0.0067963813
           1.2e+09      0.0176484406     -0.00705316701       -0.355683847       -0.929652015       -0.355683847       -0.929652015       0.0176484517     -0.00705313113
         1.205e+09      0.0179614284     -0.00731596947       -0.363219801       -0.926696788       -0.363219801       -0.926696788       0.0179614398     -0.00731593364
          1.21e+09      0.0182730549     -0.00758482599       -0.370731713       -0.923679913       -0.370731713       -0.923679913       0.0182730666      -0.0075847902
         1.215e+09      0.0185832099     -0.00785973599       -0.378219072       -0.920601581       -0.378219072       -0.920601581       0.0185832219     -0.00785970026
          1.22e+09      0.0188917835     -0.00814069697       -0.385681367       -0.917461988       -0.385681367       -0.917461988       0.0188917958     -0.00814066129
         1.225e+09      0.0191986651      -0.0084277044       -0.393118091       -0.914261332       -0.393118091       -0.914261332       0.0191986777     -0.00842766879
          1.23e+09      0.0195037439     -0.00872075181       -0.400528736       -0.910999818       -0.400528736       -0.910999818       0.0195037569     -0.00872071626
         1.235e+09      0.0198069093      -0.0090198307       -0.407912796       -0.907677654       -0.407912796       -0.907677654       0.0198069225     -0.00901979523
          1.24e+09        0.02010805      -0.0093249306       -0.415269769       -0.904295053       -0.415269769       -0.904295053       0.0201080635     -0.00932489521
         1.245e+09      0.0204070549       -0.009636039        -0.42259915       -0.900852232        -0.42259915       -0.900852232       0.0204070687      -0.0096360037
          1.25e+09      0.0207038126      -0.0099531414       -0.429900441       -0.897349412       -0.429900441       -0.897349412       0.0207038268      -0.0099531062
         1.255e+09       0.020998212      -0.0102762206       -0.437173142        -0.89378682       -0.437173142        -0.89378682       0.0209982264      -0.0102761855
          1.26e+09      0.0212901417      -0.0106052588       -0.444416756       -0.890164685       -0.444416756       -0.890164685       0.0212901564      -0.0106052238
         1.265e+09      0.0215794902      -0.0109402352       -0.451630787       -0.886483242       -0.451630787       -0.886483242       0.0215795051      -0.0109402004
          1.27e+09      0.0218661463      -0.0112811275       -0.458814743       -0.882742728       -0.458814743       -0.882742728       0.0218661615      -0.0112810927
         1.275e+09      0.0221499988      -0.0116279107       -0.465968132       -0.878943386       -0.465968132       -0.878943386       0.0221500143       -0.011627876
          1.28e+09      0.0224309366      -0.0119805582       -0.473090463       -0.875085464       -0.473090463       -0.875085464       0.0224309524      -0.0119805237
         1.285e+09      0.0227088489      -0.0123390413        -0.48018125       -0.871169214        -0.48018125       -0.871169214        0.022708865      -0.0123390069
          1.29e+09      0.0229836249      -0.0127033291       -0.487240007        -0.86719489       -0.487240007        -0.86719489       0.0229836412      -0.0127032949
         1.295e+09      0.0232551542      -0.0130733888        -0.49426625       -0.863162753        -0.49426625       -0.863162753       0.0232551708      -0.0130733548
           1.3e+09      0.0235233265      -0.0134491855       -0.501259498       -0.859073066       -0.501259498       -0.859073066       0.0235233434      -0.0134491516
         1.305e+09      0.0237880321      -0.0138306823        -0.50821927       -0.854926098        -0.50821927       -0.854926098       0.0237880493      -0.0138306485
          1.31e+09      0.0240491614      -0.0142178401       -0.515145091       -0.850722121       -0.515145091       -0.850722121       0.0240491788      -0.0142178065
         1.315e+09      0.0243066053      -0.0146106178       -0.522036486       -0.846461411       -0.522036486       -0.846461411        0.024306623      -0.0146105844
          1.32e+09       0.024560255      -0.0150089725        -0.52889298        -0.84214425        -0.52889298        -0.84214425        0.024560273      -0.0150089393
         1.325e+09      0.0248100026      -0.0154128592       -0.535714105       -0.837770922       -0.535714105       -0.837770922       0.0248100208       -0.015412826
          1.33e+09      0.0250557397      -0.0158222302       -0.542499391       -0.833341716       -0.542499391       -0.833341716       0.0250557581      -0.0158221973
         1.335e+09      0.0252973597      -0.0162370368       -0.549248373       -0.828856924       -0.549248373       -0.828856924       0.0252973784      -0.0162370041
          1.34e+09      0.0255347559      -0.0166572276       -0.555960588       -0.824316845       -0.555960588       -0.824316845       0.0255347748      -0.0166571951
         1.345e+09      0.0257678221      -0.0170827495       -0.562635575       -0.819721778       -0.562635575       -0.819721778       0.0257678412      -0.0170827172
          1.35e+09      0.0259964531      -0.0175135472       -0.569272875       -0.815072028       -0.569272875       -0.815072028       0.0259964724      -0.0175135151
         1.355e+09      0.0262205442      -0.0179495634       -0.575872033       -0.810367906       -0.575872033       -0.810367906       0.0262205638      -0.0179495315
          1.36e+09      0.0264399915      -0.0183907389       -0.582432595       -0.805609724       -0.582432595       -0.805609724       0.0264400113      -0.0183907072
         1.365e+09      0.0266546918      -0.0188370125       -0.588954111       -0.800797798       -0.588954111       -0.800797798       0.0266547118      -0.0188369811
          1.37e+09      0.0268645427      -0.0192883211       -0.595436133        -0.79593245       -0.595436133        -0.79593245       0.0268645629      -0.0192882899
         1.375e+09       0.027069443      -0.0197445995       -0.601878215       -0.791014004       -0.601878215       -0.791014004       0.0270694634      -0.0197445685
          1.38e+09      0.0272692914      -0.0202057802       -0.608279915       -0.786042789       -0.608279915       -0.786042789        0.027269312      -0.0202057495
         1.385e+09      0.0274639887      -0.0206717946       -0.614640793       -0.781019138       -0.614640793       -0.781019138       0.0274640096      -0.0206717641
          1.39e+09      0.0276534361      -0.0211425716       -0.620960411       -0.775943386       -0.620960411       -0.775943386       0.0276534571      -0.0211425414
         1.395e+09      0.0278375356      -0.0216180383       -0.627238337       -0.770815875       -0.627238337       -0.770815875       0.0278375568      -0.0216180083
           1.4e+09      0.0280161906      -0.0220981197       -0.633474137       -0.765636947       -0.633474137       -0.765636947        0.028016212        -0.02209809
         1.405e+09      0.0281893053      -0.0225827393       -0.639667385       -0.760406951       -0.639667385       -0.760406951       0.0281893268      -0.0225827099
          1.41e+09      0.0283567851      -0.0230718184       -0.645817654       -0.755126238       -0.645817654       -0.755126238       0.0283568068      -0.0230717892
         1.415e+09      0.0285185366      -0.0235652766       -0.651924522       -0.749795163       -0.651924522       -0.749795163       0.0285185584      -0.0235652477
          1.42e+09      0.0286744673      -0.0240630316       -0.657987569       -0.744414084       -0.657987569       -0.744414084       0.0286744893       -0.024063003
         1.425e+09      0.0288244863      -0.0245649993       -0.664006379       -0.738983365       -0.664006379       -0.738983365       0.0288245084       -0.024564971
          1.43e+09      0.0289685035      -0.0250710938       -0.669980539       -0.733503371       -0.669980539       -0.733503371       0.0289685258      -0.0250710657
         1.435e+09      0.0291064305      -0.0255812274       -0.675909639       -0.727974472       -0.675909639       -0.727974472        0.029106453      -0.0255811996
          1.44e+09      0.0292381796      -0.0260953099        -0.68179327       -0.722397042        -0.68179327       -0.722397042       0.0292382022      -0.0260952824
         1.445e+09      0.0293636649      -0.0266132504       -0.687631029       -0.716771458       -0.687631029       -0.716771458       0.0293636875      -0.0266132232
          1.45e+09       0.029482802      -0.0271349562       -0.693422516       -0.711098098       -0.693422516       -0.711098098       0.0294828248      -0.0271349293
         1.455e+09      0.0295955079      -0.0276603328       -0.699167334       -0.705377348       -0.699167334       -0.705377348       0.0295955308      -0.0276603062
          1.46e+09      0.0297017009      -0.0281892838       -0.704865089       -0.699609592       -0.704865089       -0.699609592       0.0297017239      -0.0281892576
         1.465e+09      0.0298013005      -0.0287217113        -0.71051539       -0.693795223        -0.71051539       -0.693795223       0.0298013236      -0.0287216853
          1.47e+09      0.0298942282      -0.0292575155        -0.71611785       -0.687934633        -0.71611785       -0.687934633       0.0298942513      -0.0292574898
         1.475e+09      0.0299804066      -0.0297965951       -0.721672085        -0.68202822       -0.721672085        -0.68202822       0.0299804298      -0.0297965698
          1.48e+09      0.0300597601      -0.0303388473       -0.727177714       -0.676076385       -0.727177714       -0.676076385       0.0300597834      -0.0303388223
         1.485e+09      0.0301322146      -0.0308841677       -0.732634361        -0.67007953       -0.732634361        -0.67007953        0.030132238       -0.030884143
          1.49e+09      0.0301976978      -0.0314324503       -0.738041652       -0.664038064       -0.738041652       -0.664038064       0.0301977213      -0.0314324259
         1.495e+09      0.0302561389      -0.0319835875       -0.743399216       -0.657952397       -0.743399216       -0.657952397       0.0302561624      -0.0319835634
           1.5e+09      0.0303074688      -0.0325374703       -0.748706687       -0.651822941       -0.748706687       -0.651822941       0.0303074923      -0.0325374466
         1.505e+09      0.0303516201      -0.0330939884       -0.753963703       -0.645650113       -0.753963703       -0.645650113       0.0303516437       -0.033093965
          1.51e+09      0.0303885363      -0.0336530437       -0.759169937       -0.639434294       -0.759169937       -0.639434294         0.03038856      -0.0336530207
         1.515e+09      0.0304181354      -0.0342144951       -0.764324967       -0.633175984       -0.764324967       -0.633175984        0.030418159      -0.0342144724
          1.52e+09      0.0304403645      -0.0347782417       -0.769428475       -0.626875571       -0.769428475       -0.626875571       0.0304403882      -0.0347782194
         1.525e+09      0.0304551635      -0.0353441676       -0.774480112       -0.620533483       -0.774480112       -0.620533483       0.0304551872      -0.0353441456
          1.53e+09      0.0304624741      -0.0359121554       -0.779479534       -0.614150152       -0.779479534       -0.614150152       0.0304624978      -0.0359121338
         1.535e+09      0.0304622399      -0.0364820865         -0.7844264       -0.607726012         -0.7844264       -0.607726012       0.0304622635      -0.0364820651
          1.54e+09      0.0304544064      -0.0370538408       -0.789320372         -0.6012615       -0.789320372         -0.6012615         0.03045443      -0.0370538199
         1.545e+09       0.030438921      -0.0376272974       -0.794161119       -0.594757058       -0.794161119       -0.594757058       0.0304389446      -0.0376272768
          1.55e+09      0.0304157331      -0.0382023338       -0.798948309       -0.588213128       -0.798948309       -0.588213128       0.0304157567      -0.0382023135
         1.555e+09      0.0303847942      -0.0387788266       -0.803681618       -0.581630157       -0.803681618       -0.581630157       0.0303848177      -0.0387788067
          1.56e+09      0.0303460577      -0.0393566511       -0.808360725       -0.575008592       -0.808360725       -0.575008592       0.0303460811      -0.0393566316
         1.565e+09       0.030299479      -0.0399356817        -0.81298531       -0.568348886        -0.81298531       -0.568348886       0.0302995024      -0.0399356625
          1.57e+09      0.0302450157      -0.0405157915       -0.817555062       -0.561651492       -0.817555062       -0.561651492        0.030245039      -0.0405157726
