! Created Fri Aug  9 09:31:27 2024
! List of port names and net name(s): example Port n = <port_name> <net_name1> <net_name2> ...
! Port 1 = P1 P2 
# hz S ri R 50
! 1 Port Network Data from data block
! freq  reS11  imS11  
!     
             1e+09     -0.0744555385       -0.995418635
         1.005e+09      -0.082395902       -0.994767482
          1.01e+09     -0.0903283929       -0.994052978
         1.015e+09     -0.0982525259       -0.993275223
          1.02e+09      -0.106167817       -0.992434318
         1.025e+09      -0.114073784       -0.991530372
          1.03e+09      -0.121969949       -0.990563493
         1.035e+09      -0.129855831       -0.989533794
          1.04e+09      -0.137730949       -0.988441391
         1.045e+09      -0.145594833       -0.987286404
          1.05e+09       -0.15344701       -0.986068955
         1.055e+09         -0.161287        -0.98478917
          1.06e+09      -0.169114337       -0.983447178
         1.065e+09      -0.176928549        -0.98204311
          1.07e+09      -0.184729171       -0.980577104
         1.075e+09      -0.192515732       -0.979049296
          1.08e+09      -0.200287777       -0.977459826
         1.085e+09      -0.208044835        -0.97580884
          1.09e+09      -0.215786446       -0.974096485
         1.095e+09      -0.223512153       -0.972322912
           1.1e+09      -0.231221497       -0.970488273
         1.105e+09      -0.238914022       -0.968592724
          1.11e+09      -0.246589275       -0.966636425
         1.115e+09      -0.254246802       -0.964619538
          1.12e+09       -0.26188615       -0.962542228
         1.125e+09       -0.26950688        -0.96040466
          1.13e+09      -0.277108535       -0.958207008
         1.135e+09      -0.284690673       -0.955949444
          1.14e+09      -0.292252849       -0.953632144
         1.145e+09      -0.299794624       -0.951255287
          1.15e+09      -0.307315556       -0.948819055
         1.155e+09      -0.314815202       -0.946323633
          1.16e+09       -0.32229314       -0.943769204
         1.165e+09      -0.329748919       -0.941155963
          1.17e+09      -0.337182121       -0.938484097
         1.175e+09      -0.344592301       -0.935753807
          1.18e+09      -0.351979041       -0.932965285
         1.185e+09      -0.359341913       -0.930118733
          1.19e+09      -0.366680485       -0.927214354
         1.195e+09      -0.373994337       -0.924252355
           1.2e+09      -0.381283049       -0.921232941
         1.205e+09      -0.388546199       -0.918156324
          1.21e+09       -0.39578337       -0.915022716
         1.215e+09      -0.402994147       -0.911832333
          1.22e+09      -0.410178115       -0.908585392
         1.225e+09      -0.417334862       -0.905282113
          1.23e+09      -0.424463978       -0.901922719
         1.235e+09      -0.431565055       -0.898507433
          1.24e+09      -0.438637684       -0.895036487
         1.245e+09      -0.445681459       -0.891510108
          1.25e+09      -0.452695984       -0.887928526
         1.255e+09       -0.45968086       -0.884291976
          1.26e+09      -0.466635679       -0.880600697
         1.265e+09      -0.473560047       -0.876854928
          1.27e+09      -0.480453566        -0.87305491
         1.275e+09      -0.487315855       -0.869200881
          1.28e+09       -0.49414651       -0.865293093
         1.285e+09      -0.500945146       -0.861331793
          1.29e+09      -0.507711375        -0.85731723
         1.295e+09      -0.514444813       -0.853249656
           1.3e+09      -0.521145075       -0.849129326
         1.305e+09      -0.527811779       -0.844956497
          1.31e+09      -0.534444548       -0.840731426
         1.315e+09      -0.541042998       -0.836454378
          1.32e+09      -0.547606761       -0.832125611
         1.325e+09      -0.554135456       -0.827745396
          1.33e+09      -0.560628715       -0.823313996
         1.335e+09      -0.567086166       -0.818831681
          1.34e+09      -0.573507438       -0.814298727
         1.345e+09      -0.579892172       -0.809715399
          1.35e+09          -0.58624       -0.805081978
         1.355e+09      -0.592550562       -0.800398738
          1.36e+09      -0.598823491       -0.795665965
         1.365e+09      -0.605058432       -0.790883936
          1.37e+09      -0.611255022        -0.78605294
         1.375e+09      -0.617412917       -0.781173255
          1.38e+09      -0.623531759       -0.776245172
         1.385e+09      -0.629611202       -0.771268976
          1.39e+09      -0.635650888       -0.766244967
         1.395e+09      -0.641650472       -0.761173436
           1.4e+09      -0.647609607        -0.75605468
         1.405e+09      -0.653527957        -0.75088899
          1.41e+09      -0.659405177       -0.745676668
         1.415e+09      -0.665240931       -0.740418012
          1.42e+09      -0.671034872       -0.735113335
         1.425e+09      -0.676786671       -0.729762934
          1.43e+09      -0.682495987       -0.724367123
         1.435e+09      -0.688162503       -0.718926197
          1.44e+09      -0.693785875       -0.713440481
         1.445e+09      -0.699365776       -0.707910286
          1.45e+09      -0.704901889       -0.702335916
         1.455e+09      -0.710393881       -0.696717696
          1.46e+09      -0.715841436       -0.691055941
         1.465e+09      -0.721244226       -0.685350974
          1.47e+09      -0.726601938       -0.679603113
         1.475e+09      -0.731914255       -0.673812682
          1.48e+09      -0.737180861       -0.667980008
         1.485e+09      -0.742401446       -0.662105415
          1.49e+09      -0.747575693       -0.656189239
         1.495e+09      -0.752703299       -0.650231803
           1.5e+09      -0.757783954       -0.644233444
         1.505e+09      -0.762817353       -0.638194495
          1.51e+09      -0.767803195       -0.632115292
         1.515e+09       -0.77274117       -0.625996181
          1.52e+09      -0.777630992       -0.619837486
         1.525e+09      -0.782472358       -0.613639555
          1.53e+09      -0.787264969       -0.607402737
         1.535e+09      -0.792008556       -0.601127343
          1.54e+09      -0.796702782       -0.594813781
         1.545e+09      -0.801347379       -0.588462369
          1.55e+09       -0.80594206       -0.582073458
         1.555e+09       -0.81048654         -0.5756474
          1.56e+09      -0.814980527       -0.569184556
         1.565e+09      -0.819423756       -0.562685261
          1.57e+09       -0.82381593       -0.556149895
         1.575e+09      -0.828156778       -0.549578808
          1.58e+09      -0.832446024       -0.542972359
         1.585e+09      -0.836683385       -0.536330926
          1.59e+09      -0.840868605       -0.529654845
         1.595e+09      -0.845001399       -0.522944507
           1.6e+09      -0.849081504       -0.516200272
         1.605e+09      -0.853108652        -0.50942251
          1.61e+09      -0.857082575         -0.5026116
         1.615e+09      -0.861003018       -0.495767901
          1.62e+09      -0.864869721       -0.488891789
         1.625e+09      -0.868682395       -0.481983693
          1.63e+09      -0.872440829       -0.475043909
         1.635e+09      -0.876144749       -0.468072856
          1.64e+09        -0.8797939       -0.461070914
         1.645e+09      -0.883388029       -0.454038477
          1.65e+09      -0.886926897       -0.446975908
         1.655e+09      -0.890410246       -0.439883616
          1.66e+09      -0.893837835       -0.432761984
         1.665e+09      -0.897209422       -0.425611403
          1.67e+09      -0.900524766       -0.418432266
         1.675e+09      -0.903783627       -0.411224968
          1.68e+09      -0.906985765       -0.403989913
         1.685e+09      -0.910130956       -0.396727477
          1.69e+09      -0.913218957       -0.389438082
         1.695e+09      -0.916249541       -0.382122123
           1.7e+09       -0.91922248       -0.374780005
         1.705e+09      -0.922137546        -0.36741213
          1.71e+09      -0.924994514       -0.360018911
         1.715e+09      -0.927793164       -0.352600753
          1.72e+09      -0.930533275       -0.345158068
         1.725e+09      -0.933214626       -0.337691277
          1.73e+09      -0.935837006       -0.330200778
         1.735e+09      -0.938400202       -0.322686989
          1.74e+09      -0.940903997       -0.315150343
         1.745e+09      -0.943348183       -0.307591253
          1.75e+09      -0.945732554        -0.30001014
         1.755e+09      -0.948056904       -0.292407429
          1.76e+09      -0.950321031       -0.284783545
         1.765e+09      -0.952524733       -0.277138915
          1.77e+09      -0.954667812       -0.269473969
         1.775e+09       -0.95675007       -0.261789148
          1.78e+09       -0.95877132       -0.254084856
         1.785e+09      -0.960731362       -0.246361557
          1.79e+09      -0.962630011       -0.238619677
         1.795e+09      -0.964467077       -0.230859656
           1.8e+09      -0.966242378       -0.223081934
         1.805e+09       -0.96795573       -0.215286953
          1.81e+09      -0.969606953       -0.207475158
         1.815e+09      -0.971195869       -0.199646994
          1.82e+09      -0.972722301        -0.19180292
         1.825e+09      -0.974186081       -0.183943356
          1.83e+09      -0.975587032       -0.176068793
         1.835e+09      -0.976924993       -0.168179645
          1.84e+09      -0.978199792       -0.160276396
         1.845e+09      -0.979411269       -0.152359494
          1.85e+09       -0.98055926       -0.144429407
         1.855e+09      -0.981643611       -0.136486583
          1.86e+09      -0.982664162       -0.128531502
         1.865e+09      -0.983620764       -0.120564609
          1.87e+09      -0.984513265       -0.112586368
         1.875e+09      -0.985341515       -0.104597269
          1.88e+09      -0.986105371      -0.0965977772
         1.885e+09      -0.986804688        -0.08858836
          1.89e+09      -0.987439328      -0.0805694939
         1.895e+09      -0.988009152      -0.0725416553
           1.9e+09      -0.988514026      -0.0645053187
         1.905e+09      -0.988953818      -0.0564609822
          1.91e+09      -0.989328398      -0.0484091052
         1.915e+09      -0.989637641      -0.0403501813
          1.92e+09      -0.989881422      -0.0322846964
         1.925e+09      -0.990059621      -0.0242131392
          1.93e+09       -0.99017212      -0.0161359991
         1.935e+09      -0.990218803     -0.00805376834
          1.94e+09      -0.990199558     3.30593033e-05
         1.945e+09      -0.990114277      0.00812398809
          1.95e+09      -0.989962852       0.0162185202
         1.955e+09       -0.98974518       0.0243161588
          1.96e+09      -0.989461162        0.032416397
         1.965e+09      -0.989110699       0.0405187326
          1.97e+09      -0.988693698       0.0486226632
         1.975e+09      -0.988210067       0.0567276799
          1.98e+09      -0.987659719       0.0648332822
         1.985e+09      -0.987042568       0.0729389418
          1.99e+09      -0.986358534       0.0810441553
         1.995e+09      -0.985607537       0.0891484067
             2e+09      -0.984789532       0.0972508888
         2.005e+09      -0.983904365        0.105351745
          2.01e+09      -0.982952031        0.113450014
         2.015e+09      -0.981932459        0.121545238
          2.02e+09      -0.980845585        0.129636923
         2.025e+09      -0.979691354        0.137724504
          2.03e+09      -0.978469705        0.145807491
         2.035e+09      -0.977180593        0.153885324
          2.04e+09      -0.975823977        0.161957422
         2.045e+09      -0.974399793        0.170023375
          2.05e+09      -0.972908009        0.178082586
         2.055e+09      -0.971348588        0.186134516
          2.06e+09      -0.969721497        0.194178629
         2.065e+09      -0.968026707        0.202214371
          2.07e+09      -0.966264189        0.210241223
         2.075e+09      -0.964433917        0.218258642
          2.08e+09      -0.962535881        0.226266058
         2.085e+09      -0.960570062        0.234262935
          2.09e+09      -0.958536448        0.242248724
         2.095e+09      -0.956435037        0.250222863
           2.1e+09      -0.954265818        0.258184824
         2.105e+09      -0.952028793        0.266134048
          2.11e+09      -0.949723973        0.274069959
         2.115e+09      -0.947351363        0.281992011
          2.12e+09      -0.944910978        0.289899643
         2.125e+09      -0.942402833        0.297792295
          2.13e+09      -0.939826951        0.305669405
         2.135e+09      -0.937183357        0.313530408
          2.14e+09      -0.934472086        0.321374725
         2.145e+09      -0.931693159        0.329201829
          2.15e+09      -0.928846627        0.337011112
         2.155e+09       -0.92593253        0.344802016
          2.16e+09      -0.922950914        0.352573969
         2.165e+09      -0.919901832        0.360326401
          2.17e+09       -0.91678534        0.368058733
         2.175e+09        -0.9136015        0.375770392
          2.18e+09      -0.910350376          0.3834608
         2.185e+09      -0.907032038        0.391129382
          2.19e+09      -0.903646565        0.398775548
         2.195e+09      -0.900194034        0.406398724
           2.2e+09      -0.896674528        0.413998328
         2.205e+09      -0.893088139        0.421573774
          2.21e+09      -0.889434959        0.429124479
         2.215e+09      -0.885715089        0.436649855
          2.22e+09      -0.881928632        0.444149315
         2.225e+09      -0.878075706        0.451622255
          2.23e+09      -0.874156408        0.459068119
         2.235e+09      -0.870170865        0.466486299
          2.24e+09      -0.866119203        0.473876202
         2.245e+09       -0.86200155        0.481237239
          2.25e+09      -0.857818059        0.488568777
         2.255e+09      -0.853568815        0.495870336
          2.26e+09      -0.849254019        0.503141207
         2.265e+09      -0.844873802        0.510380833
          2.27e+09      -0.840428319        0.517588619
         2.275e+09      -0.835917734        0.524763963
          2.28e+09      -0.831342206        0.531906281
         2.285e+09      -0.826701921        0.539014952
          2.29e+09      -0.821997048        0.546089388
         2.295e+09      -0.817227775        0.553128987
           2.3e+09      -0.812394288        0.560133153
         2.305e+09      -0.807496781        0.567101283
          2.31e+09      -0.802535456        0.574032776
         2.315e+09      -0.797510519        0.580927032
          2.32e+09      -0.792422181        0.587783448
         2.325e+09      -0.787270661        0.594601423
          2.33e+09      -0.782056182        0.601380356
         2.335e+09      -0.776778975        0.608119643
          2.34e+09      -0.771439274        0.614818682
         2.345e+09      -0.766037321        0.621476872
          2.35e+09      -0.760573373        0.628093601
         2.355e+09      -0.755047654          0.6346683
          2.36e+09      -0.749460458        0.641200326
         2.365e+09      -0.743812036        0.647689098
          2.37e+09      -0.738102661        0.654134012
         2.375e+09      -0.732332611        0.660534468
          2.38e+09      -0.726502182        0.666889853
         2.385e+09      -0.720611635        0.673199598
          2.39e+09      -0.714661297        0.679463075
         2.395e+09      -0.708651461        0.685679693
           2.4e+09      -0.702582437        0.691848856
         2.405e+09      -0.696454544        0.697969962
          2.41e+09      -0.690268101         0.70404242
         2.415e+09      -0.684023439        0.710065633
          2.42e+09      -0.677720894        0.716039006
         2.425e+09      -0.671360809        0.721961944
          2.43e+09      -0.664943532        0.727833856
         2.435e+09      -0.658469419        0.733654151
          2.44e+09      -0.651938835        0.739422237
         2.445e+09      -0.645352145        0.745137527
          2.45e+09      -0.638709726        0.750799434
         2.455e+09      -0.632011961         0.75640737
          2.46e+09       -0.62525924        0.761960754
         2.465e+09      -0.618451957        0.767459002
          2.47e+09      -0.611590515        0.772901534
         2.475e+09      -0.604675325        0.778287771
          2.48e+09      -0.597706801        0.783617136
         2.485e+09      -0.590685369        0.788889054
          2.49e+09      -0.583611457        0.794102953
         2.495e+09      -0.576485502        0.799258262
           2.5e+09      -0.569307955        0.804354409
         2.505e+09      -0.562079274        0.809390849
          2.51e+09      -0.554799849        0.814367028
         2.515e+09      -0.547470194        0.819282359
          2.52e+09      -0.540090781        0.824136286
         2.525e+09      -0.532662088        0.828928252
          2.53e+09      -0.525184602        0.833657704
         2.535e+09      -0.517658812        0.838324094
          2.54e+09      -0.510085221        0.842926873
         2.545e+09      -0.502464332        0.847465498
          2.55e+09      -0.494796661         0.85193943
         2.555e+09      -0.487082707        0.856348141
          2.56e+09      -0.479323049        0.860691071
         2.565e+09      -0.471518165        0.864967719
          2.57e+09      -0.463668633        0.869177539
         2.575e+09      -0.455774989        0.873320016
          2.58e+09      -0.447837789        0.877394629
         2.585e+09      -0.439857593        0.881400865
          2.59e+09      -0.431834973        0.885338212
         2.595e+09      -0.423770502        0.889206164
           2.6e+09      -0.415664765        0.893004218
         2.605e+09      -0.407518353        0.896731875
          2.61e+09       -0.39933186        0.900388643
         2.615e+09      -0.391105896        0.903974032
          2.62e+09      -0.382841063        0.907487556
         2.625e+09      -0.374537995        0.910928733
          2.63e+09      -0.366197279        0.914297101
         2.635e+09      -0.357819583        0.917592177
          2.64e+09      -0.349405533        0.920813499
         2.645e+09      -0.340955774         0.92396061
          2.65e+09      -0.332470956        0.927033054
         2.655e+09      -0.323951738        0.930030382
          2.66e+09      -0.315398785        0.932952153
         2.665e+09      -0.306812768        0.935797927
          2.67e+09      -0.298194388        0.938567266
         2.675e+09      -0.289544283        0.941259758
          2.68e+09      -0.280863168        0.943874977
         2.685e+09       -0.27215174        0.946412509
          2.69e+09      -0.263410702        0.948871945
         2.695e+09      -0.254640766        0.951252885
           2.7e+09       -0.24584263        0.953554938
         2.705e+09      -0.237017051        0.955777707
          2.71e+09      -0.228164739        0.957920814
         2.715e+09      -0.219286435        0.959983885
          2.72e+09      -0.210382874        0.961966552
         2.725e+09      -0.201454807        0.963868453
