!Keysight Technologies N9918A: A.08.19
!Date: Monday, 03 March 2025 16:43:39
!Timezone: (GMT-06:00) Guadalajara, Mexico City, Monterrey
!Model: N9918A
!Serial: MY53103234
!GPS Latitude: 
!GPS Longitude: 
!GPS TimeStamp: 0001-01-01 00:00:00Z
!GPS Seconds Since Last Read: 0
!CHECKSUM:0570950137
!Correction: S11(ON U)S21(ON U)S12(ON U)S22(ON U)
!S2P File: Measurements:S11,S21,S12,S22:
# Hz S DB R 50
2500000000	-19.5509199330996	146.469153129487	-25.6693246858333	-14.9321731378776	-25.8013096245819	-14.7180870276563	-16.8197053348839	-174.480197244612	
2502000000	-19.5224779891208	146.159343110152	-25.7047066626334	-18.9138929778868	-25.7706201444094	-18.6442283545992	-16.7639164007855	-175.536380564262	
2504000000	-19.5646251452129	146.303936152849	-25.6756857124777	-22.999235609011	-25.7141470866302	-22.6410041156772	-16.6805673139338	-176.384383627102	
2506000000	-19.6051357609327	146.496403095352	-25.6483676316564	-27.1707179227901	-25.6782845809411	-26.7074182281137	-16.5751097462732	-177.240279357116	
2508000000	-19.6766728518911	146.728373246302	-25.6297815774633	-31.3431114672629	-25.6410824375973	-31.0029112439916	-16.4590594518599	-178.011487175353	
2510000000	-19.7530616063012	146.682309973952	-25.6031029403974	-35.5531009162	-25.6072465053398	-35.4069435503482	-16.3345699340072	-178.709066836898	
2512000000	-19.8607153938432	146.832370376639	-25.5998167439338	-40.0620373485406	-25.5858886132111	-39.7707365723719	-16.1961879143741	-179.621489585997	
2514000000	-20.0490229353502	147.34503392576	-25.6217738407383	-44.45959356145	-25.5967312109043	-44.1873201316203	-16.102157106016	179.57886821974	
2516000000	-20.2837470366198	148.066892360982	-25.6679280058904	-48.893482283953	-25.631023230992	-48.7654687632933	-16.0083957364807	178.744774813075	
2518000000	-20.5386869509371	149.460084384267	-25.7433309722637	-53.1622101064483	-25.708062179822	-53.0840755585168	-15.9395874443198	177.857462724248	
2520000000	-20.7782161430999	151.175046189867	-25.8342072464471	-57.1785326765474	-25.7969232063353	-57.1947782705233	-15.906732229419	177.178701178748	
2522000000	-20.9998323926115	153.569338533214	-25.9039507677694	-60.9364080069551	-25.8672400258071	-61.1840218142318	-15.8901577969675	176.545355931976	
2524000000	-21.1991790696512	156.149742137943	-25.9603376692656	-64.6312041463545	-25.9114433893849	-64.9824286067209	-15.8955654026554	176.108350822566	
2526000000	-21.3136907439388	159.081624781882	-25.9890443912867	-68.2544182109353	-25.9381864308547	-68.642991461001	-15.9136781575351	175.772040635515	
2528000000	-21.4083284479434	162.139389293139	-25.9888233866133	-71.9637859094387	-25.9405287196756	-72.4961833817607	-15.9465154075405	175.619110237867	
2530000000	-21.3963778442763	164.991346994287	-25.9862365691303	-75.6687061860767	-25.9712652576234	-76.4396289735023	-15.9751269152527	175.356113045427	
2532000000	-21.4045477967229	167.35411655244	-25.9829821527302	-79.6424106739226	-25.9909859203974	-80.355492520564	-16.0347372067789	175.168553070872	
2534000000	-21.3119581092218	169.706287275748	-25.9935409648283	-83.4977307148427	-25.9991100821768	-84.294739367113	-16.1048090043343	174.914356862967	
2536000000	-21.1929354312303	171.668780052166	-26.0116896897539	-87.5309852024194	-26.0269989848759	-88.3585244995548	-16.1660392850883	174.52218323508	
2538000000	-21.1073399362702	172.901236226781	-26.0192708660093	-91.452554909323	-26.0643457326069	-92.2488781642698	-16.2829354004499	174.17459455503	
2540000000	-20.9989723518242	173.729104542616	-26.0608196957438	-95.4656287512447	-26.1103874496832	-96.1279096736192	-16.4379328792653	173.848721068312	
2542000000	-20.9171460047936	173.932784252314	-26.1025240625239	-99.1152982135836	-26.1680808999424	-99.8993177961714	-16.5973942289707	173.670382171768	
2544000000	-20.8260987338757	173.757901235198	-26.1420355991948	-102.7839721935	-26.2214135452346	-103.569796124057	-16.7916356673972	173.462401155995	
2546000000	-20.8040259598755	172.859857266325	-26.1623191075631	-106.290847356236	-26.2520038125385	-107.006970861951	-16.9655869298121	173.381454282523	
2548000000	-20.8504221317748	171.687755686141	-26.172639563287	-109.733991194858	-26.2672299890848	-110.501147051843	-17.1447669546123	173.143694129372	
2550000000	-20.9409789719039	170.165266536924	-26.1489625152541	-113.248925521755	-26.2499611257796	-113.885272981606	-17.3096007579291	172.853467735051	
2552000000	-21.0713713215296	168.378928974017	-26.1003504325953	-116.796472500817	-26.2160365255364	-117.368134038221	-17.4833273555959	172.227571403258	
2554000000	-21.2582720263555	166.570361056149	-26.0425686996229	-120.708311865079	-26.1701501676495	-120.931805210602	-17.6747659278781	171.624631027511	
2556000000	-21.4977924215729	164.300981804996	-25.9842415305049	-124.509239411377	-26.1089217986838	-124.806482105751	-17.8699097118063	170.796418045743	
2558000000	-21.7907145776743	162.018701925735	-25.9385137155682	-128.481608684187	-26.0654640131834	-128.671407743513	-18.1006144852604	169.924673990161	
2560000000	-22.0597128161675	159.662011603634	-25.9133759173686	-132.74740623989	-26.0326681057061	-132.720582511223	-18.3161092861067	168.889491936068	
2562000000	-22.3857318232747	157.606906736122	-25.899672567801	-136.894857630581	-26.0108786707171	-136.847929361663	-18.5294178260809	167.985415544766	
2564000000	-22.7134502757354	155.451320112187	-25.9071938312586	-141.114498353854	-26.0144462016594	-141.094861179791	-18.7527500278018	166.869486261544	
2566000000	-22.9403136343172	152.876023461852	-25.9526135843322	-145.421945857648	-26.0472146482999	-145.266621924286	-18.9650113856352	165.77270052919	
2568000000	-23.2604337039921	150.509288570396	-26.0116006429241	-149.558360225095	-26.0952697375488	-149.227948296012	-19.1473332225675	164.563566416138	
2570000000	-23.4806857384836	147.673627122468	-26.0878565528179	-153.466354917431	-26.1596762149856	-153.103735146156	-19.3241907222253	163.211504416867	
2572000000	-23.7139183241944	144.836888232251	-26.150495403574	-157.239469911235	-26.2136602950199	-156.858001457969	-19.4656309994789	161.769329426692	
2574000000	-23.918558945108	141.933832209665	-26.2041705377672	-160.877778475953	-26.2629798065718	-160.488346769122	-19.6097896433555	160.286391834596	
2576000000	-24.1323419601549	139.059637737243	-26.2682840505187	-164.433138415376	-26.3113605425277	-163.95494612682	-19.73064463452	158.916998530128	
2578000000	-24.2567372530796	136.133124958001	-26.3055163969765	-167.884988289527	-26.3303686906475	-167.68175101541	-19.8262757846425	157.138725116382	
2580000000	-24.4335767224898	133.30930899714	-26.3417974737938	-171.402384106051	-26.356985543584	-171.021633456272	-19.9429063956541	155.392167121506	
2582000000	-24.5828266623308	130.603416099694	-26.3423107354088	-174.811696719246	-26.3594340041299	-174.578653153549	-20.0374373450571	153.973968193329	
2584000000	-24.6941487844232	128.508337645369	-26.358925633179	-178.33380528788	-26.3707689898268	-178.003988777119	-20.1413641569434	152.656235504066	
2586000000	-24.7791808149417	126.541095289688	-26.3580060689464	178.222724201883	-26.3473055828099	178.583601094242	-20.2053352414296	151.423972743983	
2588000000	-24.8910509565929	124.55117313629	-26.3287638464874	174.731571616893	-26.3368492710191	175.063113654397	-20.2589588605203	150.502653538807	
2590000000	-24.9614047232487	122.984918832888	-26.3074721563145	171.133117928907	-26.2958879398583	171.373346854265	-20.2771098532945	149.623003345191	
2592000000	-25.0613384797311	121.783454102067	-26.2757598580417	167.504843602561	-26.2463716623469	167.774285903738	-20.2685314526797	148.982166479853	
2594000000	-25.1495974665097	120.610412542603	-26.2675413809775	163.722957901747	-26.2171298179804	163.934772340184	-20.2291291441704	148.595390674094	
2596000000	-25.2713946188113	119.453176492168	-26.24148168136	159.912027543443	-26.1878343617544	160.085642155344	-20.1838905984908	147.941646002454	
2598000000	-25.4213339455619	118.758598702347	-26.2526235722286	156.146567512855	-26.1868076341006	156.172219977391	-20.1071273542643	147.228849742204	
2600000000	-25.5813765988505	118.142990721318	-26.2692482611095	152.354584613905	-26.1872041656978	152.225117395364	-20.0687128060954	146.788177031151	
2602000000	-25.850009225287	118.029072058791	-26.2657984699064	148.673280984838	-26.1950609232538	148.431570647812	-20.0414791880384	145.964493809007	
2604000000	-26.1789237816682	117.709946102374	-26.297401453885	145.106467638879	-26.2266023514294	144.673267222225	-20.0787580039466	145.325040658934	
2606000000	-26.5065433129769	117.894736741505	-26.2880801881339	141.462446300717	-26.2397117572111	141.006400235785	-20.1724723645601	144.694019978838	
2608000000	-26.948660515333	118.552347256706	-26.3005354053926	137.802495450855	-26.2702140801671	137.362507146344	-20.3274857696043	144.546511253539	
2610000000	-27.4153547067713	119.059567412339	-26.2878150818334	134.173440213824	-26.2910907710617	133.738663729052	-20.5522232941767	144.456406106525	
2612000000	-27.8914997080605	120.055094266486	-26.2991606694195	130.466190633419	-26.308377815496	130.033607968397	-20.793660630939	145.024139549638	
2614000000	-28.4866888074646	120.569048154328	-26.3173774631097	126.841783636725	-26.3256805654136	126.411072918203	-21.0318536318826	145.940819634449	
2616000000	-29.2283713562523	121.37576177701	-26.3464741101397	123.155390606953	-26.3506579936251	122.923072306679	-21.2795134663206	147.049308530731	
2618000000	-30.185632225767	122.404520786611	-26.3866422406265	119.705513911881	-26.3856698152319	119.523130702629	-21.5298712899713	148.270601432014	
2620000000	-31.4889129528911	123.742756426531	-26.4254666614362	116.277415397267	-26.4257581512169	116.071654676102	-21.7797160486215	149.849996232411	
2622000000	-33.1647631033407	126.634316172025	-26.4861105254613	112.983071854434	-26.4437774487314	112.721091126444	-22.0094458355216	151.189830399755	
2624000000	-35.5236095613918	131.083647673122	-26.5228974430268	109.874941593601	-26.4839152878487	109.696653382331	-22.2649392535089	152.473337913128	
2626000000	-38.5722504529888	141.259151884485	-26.5401204414107	107.054143885474	-26.5063197270015	106.756920360925	-22.5796443204097	153.611255429309	
2628000000	-42.0784093078923	167.729224276824	-26.5343717288541	104.379614627814	-26.4645271499467	103.934800219913	-22.9109150167328	154.832677268712	
2630000000	-42.421407366656	-145.086487439223	-26.4485629649963	101.691408986845	-26.4119344898256	101.147233084912	-23.3822376201875	155.961973343764	
2632000000	-38.7574137964116	-115.20586248392	-26.3461193458364	98.7887585148723	-26.3010173989846	98.1820717402434	-23.8751593764712	157.738114809388	
2634000000	-35.2856771564812	-103.298700213825	-26.2048289216573	95.7358010053099	-26.1725118836659	95.1240800862411	-24.4054775212401	159.777289794683	
2636000000	-32.7660031696457	-97.3940479383866	-26.0450426674855	92.3847479570909	-26.033441748986	91.623482726547	-24.95741269772	162.112853290553	
2638000000	-30.909492429735	-94.0012400383637	-25.9106022663355	88.8306709685434	-25.9041596284388	88.1109550138636	-25.512485937308	164.742634364596	
2640000000	-29.3390748753144	-91.585328838312	-25.763093746519	85.1083144645047	-25.7805555668812	84.3986213408892	-26.1243106966392	167.240196034886	
2642000000	-28.1094940157058	-89.9076466276212	-25.6230481126108	81.2002644305295	-25.6727079296815	80.5863580224666	-26.7013480884187	170.456169626411	
2644000000	-26.9814009774976	-88.4778256170839	-25.5188210567436	77.3863508287895	-25.567703531956	76.6587544588612	-27.3970844395314	173.799559733115	
2646000000	-26.052301214136	-87.7783910413833	-25.433285339408	73.3026897871074	-25.4785725504631	72.6788396817298	-28.0923447654872	177.372659955206	
2648000000	-25.2719961816075	-87.0293319321867	-25.3312244192041	69.169507707543	-25.409077518	68.6616337137211	-28.7920725712871	-178.371935338143	
2650000000	-24.5597867226374	-86.7302204450432	-25.274416500858	65.0541352963426	-25.3518744233073	64.6227117779188	-29.5447201933442	-172.933276797508	
2652000000	-23.9916670133158	-86.5766048171652	-25.2455234373293	60.7911605334347	-25.3090762495583	60.567268562248	-30.1939991846774	-166.385653075005	
2654000000	-23.5398522243791	-86.395744136503	-25.2279649872163	56.7909449957071	-25.2995954562759	56.5842692822831	-30.6391957378625	-159.103050618781	
2656000000	-23.1313612332899	-86.3162207139966	-25.2267596994545	52.8269774155466	-25.2885099358196	52.7066253608292	-30.9594814062008	-151.940506749651	
2658000000	-22.7376817999503	-86.2630044890485	-25.2142253501116	49.0312092676153	-25.2764731779429	48.9132419612098	-30.9789373033819	-144.148890831354	
2660000000	-22.442904534473	-86.2435053236353	-25.1840872065764	45.1786103824566	-25.2524968563454	45.081993200332	-30.6709938221848	-137.152335465526	
2662000000	-22.1335461041695	-86.5668191581409	-25.1657712079442	41.2969079563681	-25.228983490657	41.2428414018631	-30.2528297185739	-132.043540461555	
2664000000	-21.8205018076585	-87.0646913864743	-25.1651661260074	37.3190116562739	-25.2306183527842	37.3727406090746	-29.7696796693131	-128.671792446001	
2666000000	-21.6147988500667	-87.7715489283446	-25.1753758592774	33.5471552281164	-25.2248977368606	33.4979458264469	-29.3150499026513	-126.507499898915	
2668000000	-21.4096215890626	-88.846878644605	-25.1786299744786	29.7747182256383	-25.2314058209535	29.7617261968598	-28.805069988788	-124.291090381039	
2670000000	-21.2457711125583	-90.164984124805	-25.1874273985833	26.0607462361524	-25.2628193894925	25.9820820609617	-28.3291924304199	-124.292715900713	
2672000000	-21.1169302036519	-91.814954587886	-25.1855812459811	22.3911838634207	-25.2690364603637	22.2180072413171	-27.7461568183076	-124.365333709609	
2674000000	-21.0502009948074	-93.4167608497347	-25.1852082600021	18.6925047401351	-25.2528100138708	18.6180821139946	-27.1869407907037	-125.328443492431	
2676000000	-20.9937075641912	-94.969610697398	-25.1685185971819	15.0292144887501	-25.2499598141213	14.8928077998728	-26.6208086577565	-126.933289510244	
2678000000	-20.9453228651089	-96.8343170244593	-25.1576945660428	11.2734329912095	-25.2494869638977	11.3103000056077	-26.1077004561537	-129.365023149213	
2680000000	-20.9078189418656	-98.2388749434433	-25.146542911305	7.41348762684155	-25.243990595023	7.53941090316172	-25.6083192824299	-132.074448520452	
2682000000	-20.8701023726114	-99.8158619955397	-25.1563241256658	3.52477525272414	-25.2474558669051	3.61474645648869	-25.1337510178564	-135.085965655787	
2684000000	-20.733600874982	-101.017069213675	-25.1520041866083	-0.398050897409246	-25.2568189087441	-0.289914295039117	-24.7603154990246	-137.934683434652	
2686000000	-20.5447208966594	-102.381744317598	-25.1927957510783	-4.26925486217522	-25.2886069341738	-4.1850359299887	-24.3588771927908	-140.746273967063	
2688000000	-20.2883589877067	-103.730974378346	-25.2353004156152	-8.15743389532014	-25.3363813216808	-7.80484088862926	-23.9837505630709	-143.103059915387	
2690000000	-19.959188933344	-105.224917706015	-25.2921098106941	-11.8942057152237	-25.4022781989375	-11.54053573775	-23.716719094731	-145.185887576302	
2692000000	-19.6006116693161	-107.121929394073	-25.3536243276491	-15.5691083549103	-25.4471185446322	-15.1048273279937	-23.4020070904101	-146.818780588316	
2694000000	-19.1846747069762	-109.205714586505	-25.4186154062255	-19.0924551423631	-25.5185945706356	-18.5564779597003	-23.1332406316948	-147.94316385176	
2696000000	-18.7441930703966	-111.451420213098	-25.4775627953831	-22.4807722922117	-25.5663174743215	-21.8645280906331	-22.8744703143589	-148.324952633824	
2698000000	-18.3437916017167	-113.82437926333	-25.5227444036793	-25.7083090536533	-25.6129532842867	-25.1466214280713	-22.5742310547526	-148.2233731894	
2700000000	-17.9645758056995	-116.383971026686	-25.540803225916	-29.0736495542242	-25.6195954555911	-28.3508290128709	-22.2644236233411	-147.78033827049	
2702000000	-17.6214133164837	-118.917022418324	-25.5899420010427	-32.3126087659259	-25.6342139759318	-31.5817051894393	-21.9143287500613	-147.197573069556	
2704000000	-17.2966047456978	-121.07829245086	-25.5956001533104	-35.6184162188185	-25.6303399767369	-34.8497150344487	-21.5197151633879	-146.323564829689	
2706000000	-16.9790851290573	-122.995733811891	-25.6274291980997	-38.8538067725407	-25.6357881476891	-38.1823057642436	-21.1173479165886	-145.503156069187	
2708000000	-16.6793528132636	-124.740298203992	-25.6257849324079	-42.0080449232035	-25.6210116418884	-41.2259355365896	-20.713433791398	-144.713311876961	
2710000000	-16.4040565103223	-126.209837392236	-25.6273475007493	-45.1673464356119	-25.600310773091	-44.5510587528711	-20.2997686607021	-143.912477443832	
2712000000	-16.1110549971367	-127.578455481902	-25.587923134695	-48.2997882824063	-25.5744486421509	-47.7594547129038	-19.8533183625502	-142.90946799047	
2714000000	-15.8390471625453	-128.873960125567	-25.5396746136863	-51.5416010715062	-25.504858327086	-51.1115017564283	-19.4140580995808	-142.292385477038	
2716000000	-15.577748572129	-129.99346735248	-25.4870402613761	-54.8844495155091	-25.4492947751507	-54.4922442527868	-18.9878332421747	-141.531874822651	
2718000000	-15.3309613098509	-131.082325364721	-25.42676639475	-58.5046403316883	-25.381117665494	-58.1265612122278	-18.5129275393276	-141.255829188319	
2720000000	-15.1135798826077	-132.258282087415	-25.3823609322455	-62.1633291009281	-25.3358256574336	-61.9044758096668	-18.0599811448659	-140.983893832835	
2722000000	-14.909173830443	-133.319759285817	-25.3626132760698	-65.9087062199192	-25.3014274931117	-65.681237294179	-17.627875919253	-141.402658591276	
2724000000	-14.7560126115226	-134.317686087018	-25.3413081416874	-69.595438534347	-25.2878591428915	-69.499133404303	-17.2419528882743	-142.027005217862	
2726000000	-14.627057264807	-135.182918541154	-25.3516400297841	-73.3193010386125	-25.2892463704964	-73.3807288058902	-16.9163726730498	-142.770120915936	
2728000000	-14.5182130716842	-136.029181455743	-25.3529637625567	-77.0171950359358	-25.3035758186143	-77.1664763487049	-16.6489947310659	-143.882691567605	
2730000000	-14.4571783643269	-136.65571701066	-25.3727032212634	-80.6707351442315	-25.3347185287964	-80.998647383455	-16.4763725558437	-144.74848017037	
2732000000	-14.3864686222538	-137.200864888493	-25.406591624962	-84.3103744702415	-25.3788104951249	-84.7132086434973	-16.3352187421184	-145.841232221204	
2734000000	-14.3471820093422	-137.70252440951	-25.4331910054517	-87.8824396757554	-25.4363690230022	-88.2965135137696	-16.2564956656693	-146.772487842616	
2736000000	-14.3062425310303	-138.101017262449	-25.4609204602911	-91.313572647495	-25.495940683797	-91.8759309411613	-16.2011337857474	-147.600038124759	
2738000000	-14.2705090158744	-138.503727386337	-25.5242158022302	-94.7550428576715	-25.5633233331142	-95.242228293494	-16.159690947367	-148.221592356986	
2740000000	-14.2496485537974	-139.073081987979	-25.5628496517338	-98.1285009304973	-25.6283809206695	-98.5265154860407	-16.1292342493464	-148.858315836373	
2742000000	-14.2495666697416	-139.676606931969	-25.599551635678	-101.433221925913	-25.6623213490473	-101.676976179366	-16.09262043503	-149.437035454964	
2744000000	-14.2676749384242	-140.365298671323	-25.6312848755209	-104.599261901995	-25.7070726285592	-104.881815575764	-16.0619648232979	-150.232276752843	
2746000000	-14.3118999282762	-141.081044289773	-25.6648994446854	-107.789946710348	-25.7522367004061	-107.935503494548	-16.068311016981	-151.229697674362	
2748000000	-14.3805256734127	-141.644580366146	-25.7002231353654	-110.830489826088	-25.7867478644557	-110.951742060523	-16.0969723942138	-152.20686472456	
2750000000	-14.4480106930397	-142.360967546446	-25.7109493233653	-113.795116734639	-25.7888827280531	-113.782909430068	-16.1709023426505	-153.300181725791	
