! Created Fri Aug  9 08:57:00 2024
! List of port names and net name(s): example Port n = <port_name> <net_name1> <net_name2> ...
! Port 1 = P1 P1 
! Port 2 = P2 P2 
# hz S ri R 50
! 2 Port Network Data from data block
! freq  reS11  imS11  reS21  imS21  reS12  imS12  reS22  imS22  
!     
             1e+09       0.699196589       -0.713927459    -0.000208877209     8.87823306e-05    -0.000208877209     8.87823306e-05        0.698889748       -0.714237191
         1.005e+09       0.696112883       -0.716918935    -0.000214631148     8.96661507e-05    -0.000214631148     8.96661507e-05        0.695802785       -0.717229345
          1.01e+09       0.693012668       -0.719900484    -0.000220460845     9.06154241e-05    -0.000220460845     9.06154241e-05        0.692699292       -0.720211555
         1.015e+09       0.689895935       -0.722872023    -0.000226366156     9.16318024e-05    -0.000226366156     9.16318024e-05        0.689579261        -0.72318374
          1.02e+09       0.686762674       -0.725833471    -0.000232346921     9.27169596e-05    -0.000232346921     9.27169596e-05        0.686442681       -0.726145818
         1.025e+09       0.683612876       -0.728784744    -0.000238402954     9.38725796e-05    -0.000238402954     9.38725796e-05        0.683289545       -0.729097704
          1.03e+09       0.680446532       -0.731725759    -0.000244534042     9.51003596e-05    -0.000244534042     9.51003596e-05        0.680119842       -0.732039315
         1.035e+09       0.677263634       -0.734656431     -0.00025073995     9.64020098e-05     -0.00025073995     9.64020098e-05        0.676933564       -0.734970567
          1.04e+09       0.674064172       -0.737576676    -0.000257020413      9.7779254e-05    -0.000257020413      9.7779254e-05        0.673730703       -0.737891375
         1.045e+09       0.670848139       -0.740486409    -0.000263375145     9.92338288e-05    -0.000263375145     9.92338288e-05        0.670511249       -0.740801653
          1.05e+09       0.667615526       -0.743385543     -0.00026980383     0.000100767483     -0.00026980383     0.000100767483        0.667275195       -0.743701317
         1.055e+09       0.664366326       -0.746273994    -0.000276306126      0.00010238198    -0.000276306126      0.00010238198        0.664022532       -0.746590278
          1.06e+09       0.661100529       -0.749151673    -0.000282881666     0.000104079093    -0.000282881666     0.000104079093        0.660753253       -0.749468451
         1.065e+09       0.657818129       -0.752018494    -0.000289530054     0.000105860609    -0.000289530054     0.000105860609        0.657467349       -0.752335748
          1.07e+09       0.654519118        -0.75487437    -0.000296250866     0.000107728328    -0.000296250866     0.000107728328        0.654164813       -0.755192081
         1.075e+09       0.651203489        -0.75771921    -0.000303043647     0.000109684059    -0.000303043647     0.000109684059        0.650845638       -0.758037361
          1.08e+09       0.647871234       -0.760552927    -0.000309907916     0.000111729625    -0.000309907916     0.000111729625        0.647509817       -0.760871499
         1.085e+09       0.644522348        -0.76337543     -0.00031684316     0.000113866859     -0.00031684316     0.000113866859        0.644157343       -0.763694405
          1.09e+09       0.641156823        -0.76618663    -0.000323848838     0.000116097608    -0.000323848838     0.000116097608         0.64078821       -0.766505989
         1.095e+09       0.637774653       -0.768986436    -0.000330924378     0.000118423726    -0.000330924378     0.000118423726         0.63740241        -0.76930616
           1.1e+09       0.634375833       -0.771774756    -0.000338069178      0.00012084708    -0.000338069178      0.00012084708        0.633999938       -0.772094826
         1.105e+09       0.630960355       -0.774551498    -0.000345282603     0.000123369547    -0.000345282603     0.000123369547        0.630580787       -0.774871896
          1.11e+09       0.627528215       -0.777316572    -0.000352563987     0.000125993015    -0.000352563987     0.000125993015        0.627144953       -0.777637276
         1.115e+09       0.624079407       -0.780069882    -0.000359912632      0.00012871938    -0.000359912632      0.00012871938        0.623692428       -0.780390874
          1.12e+09       0.620613926       -0.782811336    -0.000367327807     0.000131550549    -0.000367327807     0.000131550549         0.62022321       -0.783132595
         1.125e+09       0.617131766       -0.785540839    -0.000374808747     0.000134488439    -0.000374808747     0.000134488439        0.616737291       -0.785862346
          1.13e+09       0.613632924       -0.788258298    -0.000382354654     0.000137534974    -0.000382354654     0.000137534974        0.613234668       -0.788580032
         1.135e+09       0.610117394       -0.790963615    -0.000389964695     0.000140692088    -0.000389964695     0.000140692088        0.609715336       -0.791285556
          1.14e+09       0.606585174       -0.793656696    -0.000397637999     0.000143961719    -0.000397637999     0.000143961719         0.60617929       -0.793978822
         1.145e+09       0.603036258       -0.796337444    -0.000405373668     0.000147345822    -0.000405373668     0.000147345822        0.602626528       -0.796659735
          1.15e+09       0.599470643       -0.799005762    -0.000413170764     0.000150846357    -0.000413170764     0.000150846357        0.599057045       -0.799328196
         1.155e+09       0.595888327       -0.801661551    -0.000421028311      0.00015446529    -0.000421028311      0.00015446529        0.595470837       -0.801984108
          1.16e+09       0.592289305       -0.804304714    -0.000428945298     0.000158204593    -0.000428945298     0.000158204593        0.591867903       -0.804627371
         1.165e+09       0.588673575       -0.806935152    -0.000436920677     0.000162066248    -0.000436920677     0.000162066248        0.588248238       -0.807257888
          1.17e+09       0.585041136       -0.809552764     -0.00044495336     0.000166052241     -0.00044495336     0.000166052241        0.584611841       -0.809875557
         1.175e+09       0.581391984       -0.812157452    -0.000453042222     0.000170164565    -0.000453042222     0.000170164565         0.58095871       -0.812480278
          1.18e+09       0.577726117       -0.814749113    -0.000461186099     0.000174405219    -0.000461186099     0.000174405219        0.577288842       -0.815071951
         1.185e+09       0.574043536       -0.817327647    -0.000469383788     0.000178776205    -0.000469383788     0.000178776205        0.573602235       -0.817650473
          1.19e+09       0.570344237       -0.819892951    -0.000477634046     0.000183279534    -0.000477634046     0.000183279534         0.56989889       -0.820215743
         1.195e+09       0.566628221       -0.822444922    -0.000485935587     0.000187917219    -0.000485935587     0.000187917219        0.566178804       -0.822767657
           1.2e+09       0.562895487       -0.824983458    -0.000494287087     0.000192691276    -0.000494287087     0.000192691276        0.562441977       -0.825306111
         1.205e+09       0.559146035       -0.827508454    -0.000502687178     0.000197603728    -0.000502687178     0.000197603728        0.558688409       -0.827831002
          1.21e+09       0.555379865       -0.830019805    -0.000511134452     0.000202656599    -0.000511134452     0.000202656599        0.554918101       -0.830342225
         1.215e+09       0.551596977       -0.832517407    -0.000519627456     0.000207851916    -0.000519627456     0.000207851916        0.551131052       -0.832839673
          1.22e+09       0.547797372       -0.835001152    -0.000528164695     0.000213191709    -0.000528164695     0.000213191709        0.547327263       -0.835323241
         1.225e+09       0.543981052       -0.837470936    -0.000536744631     0.000218678009    -0.000536744631     0.000218678009        0.543506736       -0.837792821
          1.23e+09       0.540148019       -0.839926649    -0.000545365678     0.000224312849    -0.000545365678     0.000224312849        0.539669472       -0.840248307
         1.235e+09       0.536298273       -0.842368185    -0.000554026208     0.000230098264    -0.000554026208     0.000230098264        0.535815472        -0.84268959
          1.24e+09       0.532431818       -0.844795435    -0.000562724546     0.000236036287    -0.000562724546     0.000236036287         0.53194474       -0.845116562
         1.245e+09       0.528548656        -0.84720829    -0.000571458972     0.000242128952    -0.000571458972     0.000242128952        0.528057278       -0.847529111
          1.25e+09       0.524648791       -0.849606638    -0.000580227718     0.000248378293    -0.000580227718     0.000248378293        0.524153089        -0.84992713
         1.255e+09       0.520732226       -0.851990371     -0.00058902897     0.000254786343     -0.00058902897     0.000254786343        0.520232177       -0.852310506
          1.26e+09       0.516798965       -0.854359377    -0.000597860861     0.000261355127    -0.000597860861     0.000261355127        0.516294545       -0.854679127
         1.265e+09       0.512849012       -0.856713544     -0.00060672148     0.000268086672     -0.00060672148     0.000268086672        0.512340197       -0.857032883
          1.27e+09       0.508882373       -0.859052758    -0.000615608867     0.000274983008    -0.000615608867     0.000274983008        0.508369139       -0.859371659
         1.275e+09       0.504899051       -0.861376907    -0.000624521011     0.000282046158    -0.000624521011     0.000282046158        0.504381375       -0.861695343
          1.28e+09       0.500899054       -0.863685877    -0.000633455851     0.000289278139    -0.000633455851     0.000289278139        0.500376912       -0.864003819
         1.285e+09       0.496882386       -0.865979553    -0.000642411275     0.000296680963    -0.000642411275     0.000296680963        0.496355754       -0.866296973
          1.29e+09       0.492849056       -0.868257819    -0.000651385117     0.000304256639    -0.000651385117     0.000304256639        0.492317909       -0.868574689
         1.295e+09       0.488799068       -0.870520559    -0.000660375161     0.000312007167    -0.000660375161     0.000312007167        0.488263383        -0.87083685
           1.3e+09       0.484732432       -0.872767657    -0.000669379137     0.000319934543    -0.000669379137     0.000319934543        0.484192184        -0.87308334
         1.305e+09       0.480649154       -0.874998995    -0.000678394721     0.000328040754    -0.000678394721     0.000328040754         0.48010432        -0.87531404
          1.31e+09       0.476549244       -0.877214455    -0.000687419536      0.00033632778    -0.000687419536      0.00033632778        0.475999798       -0.877528833
         1.315e+09       0.472432709       -0.879413917    -0.000696451149      0.00034479759    -0.000696451149      0.00034479759        0.471878628       -0.879727598
          1.32e+09        0.46829956       -0.881597263    -0.000705487072     0.000353452146    -0.000705487072     0.000353452146        0.467740818       -0.881910216
         1.325e+09       0.464149806       -0.883764371    -0.000714524758     0.000362293398    -0.000714524758     0.000362293398        0.463586379       -0.884076566
          1.33e+09       0.459983457        -0.88591512    -0.000723561608     0.000371323287    -0.000723561608     0.000371323287        0.459415321       -0.886226526
         1.335e+09       0.455800525        -0.88804939    -0.000732594961     0.000380543739    -0.000732594961     0.000380543739        0.455227655       -0.888359974
          1.34e+09        0.45160102       -0.890167056    -0.000741622099     0.000389956671    -0.000741622099     0.000389956671        0.451023391       -0.890476788
         1.345e+09       0.447384954       -0.892267995    -0.000750640246     0.000399563983    -0.000750640246     0.000399563983        0.446802541       -0.892576843
          1.35e+09        0.44315234       -0.894352085    -0.000759646566     0.000409367563    -0.000759646566     0.000409367563        0.442565119       -0.894660016
         1.355e+09       0.438903191       -0.896419199    -0.000768638161     0.000419369284    -0.000768638161     0.000419369284        0.438311136        -0.89672618
          1.36e+09        0.43463752       -0.898469212    -0.000777612074     0.000429571001    -0.000777612074     0.000429571001        0.434040606       -0.898775211
         1.365e+09       0.430355342       -0.900501998    -0.000786565286     0.000439974555    -0.000786565286     0.000439974555        0.429753543       -0.900806981
          1.37e+09        0.42605667        -0.90251743    -0.000795494713     0.000450581767    -0.000795494713     0.000450581767        0.425449961       -0.902821363
         1.375e+09       0.421741519        -0.90451538     -0.00080439721     0.000461394439     -0.00080439721     0.000461394439        0.421129876       -0.904818228
          1.38e+09       0.417409906       -0.906495719    -0.000813269569     0.000472414354    -0.000813269569     0.000472414354        0.416793303       -0.906797449
         1.385e+09       0.413061847       -0.908458318    -0.000822108512     0.000483643268    -0.000822108512     0.000483643268        0.412440258       -0.908758894
          1.39e+09       0.408697359       -0.910403047    -0.000830910702     0.000495082924    -0.000830910702     0.000495082924        0.408070758       -0.910702434
         1.395e+09       0.404316459       -0.912329775    -0.000839672734     0.000506735045    -0.000839672734     0.000506735045        0.403684821       -0.912627937
           1.4e+09       0.399919165        -0.91423837    -0.000848391137     0.000518601325    -0.000848391137     0.000518601325        0.399282464       -0.914535271
         1.405e+09       0.395505495         -0.9161287     -0.00085706237     0.000530683433     -0.00085706237     0.000530683433        0.394863706       -0.916424304
          1.41e+09        0.39107547       -0.918000632    -0.000865682824     0.000542983015    -0.000865682824     0.000542983015        0.390428566       -0.918294902
         1.415e+09       0.386629109       -0.919854031    -0.000874248824     0.000555501686    -0.000874248824     0.000555501686        0.385977065       -0.920146929
          1.42e+09       0.382166432       -0.921688763     -0.00088275662     0.000568241036     -0.00088275662     0.000568241036        0.381509221       -0.921980252
         1.425e+09       0.377687461       -0.923504692    -0.000891202395     0.000581202624    -0.000891202395     0.000581202624        0.377025058       -0.923794734
          1.43e+09       0.373192218       -0.925301682     -0.00089958226     0.000594387979     -0.00089958226     0.000594387979        0.372524596       -0.925590237
         1.435e+09       0.368680725       -0.927079596    -0.000907892254     0.000607798599    -0.000907892254     0.000607798599        0.368007858       -0.927366626
          1.44e+09       0.364153006       -0.928838295    -0.000916128341     0.000621435948    -0.000916128341     0.000621435948        0.363474867        -0.92912376
         1.445e+09       0.359609084        -0.93057764    -0.000924286414     0.000635301455    -0.000924286414     0.000635301455        0.358925648       -0.930861501
          1.45e+09       0.355048984       -0.932297493    -0.000932362289     0.000649396517    -0.000932362289     0.000649396517        0.354360223       -0.932579709
         1.455e+09       0.350472731       -0.933997712    -0.000940351707     0.000663722493    -0.000940351707     0.000663722493         0.34977862       -0.934278243
          1.46e+09       0.345880351       -0.935678157    -0.000948250333     0.000678280703    -0.000948250333     0.000678280703        0.345180862       -0.935956962
         1.465e+09        0.34127187       -0.937338686    -0.000956053756     0.000693072428    -0.000956053756     0.000693072428        0.340566977       -0.937615722
          1.47e+09       0.336647316       -0.938979155    -0.000963757485     0.000708098908    -0.000963757485     0.000708098908        0.335936992        -0.93925438
         1.475e+09       0.332006717       -0.940599421    -0.000971356951      0.00072336134    -0.000971356951      0.00072336134        0.331290935       -0.940872792
          1.48e+09       0.327350102       -0.942199338    -0.000978847508     0.000738860878    -0.000978847508     0.000738860878        0.326628835       -0.942470814
         1.485e+09         0.3226775       -0.943778763    -0.000986224425     0.000754598632    -0.000986224425     0.000754598632        0.321950721       -0.944048298
          1.49e+09       0.317988942       -0.945337549    -0.000993482893     0.000770575663    -0.000993482893     0.000770575663        0.317256623         -0.9456051
         1.495e+09       0.313284458       -0.946875547     -0.00100061802     0.000786792985     -0.00100061802     0.000786792985        0.312546573        -0.94714107
           1.5e+09        0.30856408       -0.948392612     -0.00100762483      0.00080325156     -0.00100762483      0.00080325156        0.307820603        -0.94865606
         1.505e+09       0.303827842       -0.949888593     -0.00101449826     0.000819952302     -0.00101449826     0.000819952302        0.303078744       -0.950149921
          1.51e+09       0.299075777       -0.951363341     -0.00102123317     0.000836896054     -0.00102123317     0.000836896054         0.29832103       -0.951622504
         1.515e+09       0.294307918       -0.952816706     -0.00102782433     0.000854083634     -0.00102782433     0.000854083634        0.293547496       -0.953073656
          1.52e+09       0.289524301       -0.954248536     -0.00103426643     0.000871515789     -0.00103426643     0.000871515789        0.288758176       -0.954503227
         1.525e+09       0.284724962       -0.955658679     -0.00104055405     0.000889193207     -0.00104055405     0.000889193207        0.283953106       -0.955911062
          1.53e+09       0.279909936       -0.957046981     -0.00104668171     0.000907116518     -0.00104668171     0.000907116518        0.279132323       -0.957297009
         1.535e+09       0.275079263        -0.95841329     -0.00105264382     0.000925286287     -0.00105264382     0.000925286287        0.274295863       -0.958660913
          1.54e+09        0.27023298       -0.959757449     -0.00105843471     0.000943703015     -0.00105843471     0.000943703015        0.269443766       -0.960002619
         1.545e+09       0.265371127       -0.961079304     -0.00106404862      0.00096236714     -0.00106404862      0.00096236714        0.264576071       -0.961321969
          1.55e+09       0.260493742       -0.962378697     -0.00106947969     0.000981279027     -0.00106947969     0.000981279027        0.259692817       -0.962618808
         1.555e+09       0.255600868       -0.963655471     -0.00107472197      0.00100043898     -0.00107472197      0.00100043898        0.254794045       -0.963892976
          1.56e+09       0.250692547       -0.964909468     -0.00107976941      0.00101984721     -0.00107976941      0.00101984721        0.249879798       -0.965144315
         1.565e+09        0.24576882       -0.966140527     -0.00108461588      0.00103950389     -0.00108461588      0.00103950389        0.244950117       -0.966372665
          1.57e+09       0.240829732        -0.96734849     -0.00108925514      0.00105940907     -0.00108925514      0.00105940907        0.240005047       -0.967577864
