! Created Fri Aug  9 09:51:14 2024
! List of port names and net name(s): example Port n = <port_name> <net_name1> <net_name2> ...
! Port 1 = P1 P2 
! Port 2 = P2 P2 
# hz S ri R 50
! 2 Port Network Data from data block
! freq  reS11  imS11  reS21  imS21  reS12  imS12  reS22  imS22  
!     
             1e+09      0.0222572846      -0.0160181854       -0.567044477       -0.817414103       -0.567044477       -0.817414103       0.0222572754       -0.016018199
         1.005e+09      0.0224444297      -0.0164835559       -0.575931635       -0.811128525       -0.575931635       -0.811128525       0.0224444241      -0.0164835643
          1.01e+09      0.0226247351      -0.0169551746       -0.584749439       -0.804745706       -0.584749439       -0.804745706       0.0226247293      -0.0169551829
         1.015e+09      0.0227980247      -0.0174329189       -0.593496816       -0.798266412       -0.593496816       -0.798266412       0.0227980188      -0.0174329272
          1.02e+09      0.0229641265      -0.0179166591         -0.6021727       -0.791691421         -0.6021727       -0.791691421       0.0229641205      -0.0179166674
         1.025e+09      0.0231228709      -0.0184062608       -0.610776035       -0.785021522       -0.610776035       -0.785021522       0.0231228649       -0.018406269
          1.03e+09         0.0232741       -0.018901592       -0.619305766       -0.778257523       -0.619305766       -0.778257523       0.0232740939      -0.0189016002
         1.035e+09      0.0234176309      -0.0194024957        -0.62776087       -0.771400226        -0.62776087       -0.771400226       0.0234176247      -0.0194025038
          1.04e+09      0.0235533114      -0.0199088311        -0.63614031       -0.764450462        -0.63614031       -0.764450462       0.0235533051      -0.0199088391
         1.045e+09      0.0236809824      -0.0204204458       -0.644443066       -0.757409067       -0.644443066       -0.757409067        0.023680976      -0.0204204538
          1.05e+09      0.0238004883      -0.0209371837       -0.652668128        -0.75027689       -0.652668128        -0.75027689       0.0238004818      -0.0209371916
         1.055e+09      0.0239116763       -0.021458884       -0.660814494        -0.74305479       -0.660814494        -0.74305479       0.0239116697      -0.0214588918
          1.06e+09       0.024014397       -0.021985382       -0.668881173       -0.735743639       -0.668881173       -0.735743639       0.0240143904      -0.0219853897
         1.065e+09      0.0241085042      -0.0225165079       -0.676867183       -0.728344321       -0.676867183       -0.728344321       0.0241084976      -0.0225165155
          1.07e+09      0.0241938553      -0.0230520886       -0.684771554       -0.720857728       -0.684771554       -0.720857728       0.0241938485      -0.0230520962
         1.075e+09      0.0242703111      -0.0235919484       -0.692593323       -0.713284763       -0.692593323       -0.713284763       0.0242703042      -0.0235919559
          1.08e+09      0.0243377359      -0.0241359062       -0.700331539       -0.705626341       -0.700331539       -0.705626341        0.024337729      -0.0241359136
         1.085e+09      0.0243959981      -0.0246837774       -0.707985261       -0.697883387       -0.707985261       -0.697883387       0.0243959911      -0.0246837848
          1.09e+09      0.0244449697      -0.0252353737       -0.715553559       -0.690056838       -0.715553559       -0.690056838       0.0244449626       -0.025235381
         1.095e+09      0.0244845267       -0.025790503       -0.723035514        -0.68214764       -0.723035514        -0.68214764       0.0244845196      -0.0257905101
           1.1e+09       0.024514549      -0.0263489693       -0.730430215        -0.67415675       -0.730430215        -0.67415675       0.0245145418      -0.0263489764
         1.105e+09       0.024534921      -0.0269105738       -0.737736765       -0.666085134       -0.737736765       -0.666085134       0.0245349136      -0.0269105808
          1.11e+09      0.0245455309      -0.0274751139       -0.744954277       -0.657933771       -0.744954277       -0.657933771       0.0245455235      -0.0274751208
         1.115e+09      0.0245462717      -0.0280423837       -0.752081874       -0.649703647       -0.752081874       -0.649703647       0.0245462643      -0.0280423905
          1.12e+09      0.0245370403      -0.0286121738       -0.759118691       -0.641395758       -0.759118691       -0.641395758       0.0245370328      -0.0286121805
         1.125e+09      0.0245177386      -0.0291842723       -0.766063875       -0.633011111       -0.766063875       -0.633011111        0.024517731      -0.0291842789
          1.13e+09      0.0244882728      -0.0297584639       -0.772916584       -0.624550723       -0.772916584       -0.624550723       0.0244882652      -0.0297584704
         1.135e+09      0.0244485539      -0.0303345303       -0.779675987       -0.616015617       -0.779675987       -0.616015617       0.0244485462      -0.0303345367
          1.14e+09      0.0243984975      -0.0309122505       -0.786341265       -0.607406828       -0.786341265       -0.607406828       0.0243984898      -0.0309122568
         1.145e+09      0.0243380243      -0.0314914009        -0.79291161       -0.598725401        -0.79291161       -0.598725401       0.0243380165      -0.0314914071
          1.15e+09      0.0242670598       -0.032071755       -0.799386228       -0.589972386       -0.799386228       -0.589972386        0.024267052      -0.0320717612
         1.155e+09      0.0241855344      -0.0326530841       -0.805764335       -0.581148846       -0.805764335       -0.581148846       0.0241855266      -0.0326530901
          1.16e+09      0.0240933838      -0.0332351569       -0.812045159        -0.57225585       -0.812045159        -0.57225585       0.0240933759      -0.0332351628
         1.165e+09      0.0239905485      -0.0338177399       -0.818227942       -0.563294476       -0.818227942       -0.563294476       0.0239905406      -0.0338177457
          1.17e+09      0.0238769746      -0.0344005974       -0.824311936        -0.55426581       -0.824311936        -0.55426581       0.0238769666      -0.0344006031
         1.175e+09      0.0237526133      -0.0349834919       -0.830296407       -0.545170949       -0.830296407       -0.545170949       0.0237526053      -0.0349834974
          1.18e+09      0.0236174208      -0.0355661833       -0.836180633       -0.536010993       -0.836180633       -0.536010993       0.0236174128      -0.0355661888
         1.185e+09      0.0234713594      -0.0361484306       -0.841963903       -0.526787054       -0.841963903       -0.526787054       0.0234713513       -0.036148436
          1.19e+09      0.0233143962      -0.0367299906       -0.847645522       -0.517500251       -0.847645522       -0.517500251       0.0233143881      -0.0367299959
         1.195e+09      0.0231465041      -0.0373106186       -0.853224805       -0.508151708       -0.853224805       -0.508151708        0.023146496      -0.0373106238
           1.2e+09      0.0229676617      -0.0378900685       -0.858701079       -0.498742559       -0.858701079       -0.498742559       0.0229676535      -0.0378900735
         1.205e+09      0.0227778527      -0.0384680928       -0.864073687       -0.489273946       -0.864073687       -0.489273946       0.0227778446      -0.0384680978
          1.21e+09       0.022577067       -0.039044443       -0.869341983       -0.479747014       -0.869341983       -0.479747014       0.0225770589      -0.0390444478
         1.215e+09         0.0223653      -0.0396188696       -0.874505334        -0.47016292       -0.874505334        -0.47016292       0.0223652918      -0.0396188743
          1.22e+09      0.0221425527      -0.0401911221        -0.87956312       -0.460522823        -0.87956312       -0.460522823       0.0221425446      -0.0401911266
         1.225e+09      0.0219088319      -0.0407609486       -0.884514734       -0.450827893       -0.884514734       -0.450827893       0.0219088236      -0.0407609531
          1.23e+09      0.0216641503      -0.0413280977       -0.889359584       -0.441079303       -0.889359584       -0.441079303        0.021664142      -0.0413281021
         1.235e+09      0.0214085264      -0.0418923169        -0.89409709       -0.431278233        -0.89409709       -0.431278233       0.0214085183      -0.0418923211
          1.24e+09      0.0211419845      -0.0424533531       -0.898726684       -0.421425872       -0.898726684       -0.421425872       0.0211419764      -0.0424533572
         1.245e+09      0.0208645549      -0.0430109532       -0.903247813       -0.411523411       -0.903247813       -0.411523411       0.0208645468      -0.0430109572
          1.25e+09      0.0205762737      -0.0435648639       -0.907659938       -0.401572049       -0.907659938       -0.401572049       0.0205762655      -0.0435648678
         1.255e+09      0.0202771831      -0.0441148323       -0.911962533       -0.391572991       -0.911962533       -0.391572991       0.0202771751       -0.044114836
          1.26e+09      0.0199673326      -0.0446606034       -0.916155086       -0.381527442       -0.916155086       -0.381527442       0.0199673201      -0.0446606088
         1.265e+09      0.0196467706      -0.0452019288       -0.920237095       -0.371436625       -0.920237095       -0.371436625       0.0196467624      -0.0452019323
          1.27e+09      0.0193155629      -0.0457385529       -0.924208075       -0.361301755       -0.924208075       -0.361301755       0.0193155547      -0.0457385564
         1.275e+09      0.0189737732      -0.0462702249       -0.928067554       -0.351124057       -0.928067554       -0.351124057       0.0189737651      -0.0462702283
          1.28e+09      0.0186214732      -0.0467966941       -0.931815076       -0.340904763       -0.931815076       -0.340904763       0.0186214653      -0.0467966972
         1.285e+09      0.0182587409      -0.0473177097       -0.935450195       -0.330645105       -0.935450195       -0.330645105       0.0182587328      -0.0473177128
          1.29e+09      0.0178856596      -0.0478330232       -0.938972481       -0.320346323       -0.938972481       -0.320346323       0.0178856516      -0.0478330262
         1.295e+09      0.0175023192      -0.0483423867       -0.942381518        -0.31000966       -0.942381518        -0.31000966       0.0175023114      -0.0483423895
           1.3e+09      0.0171088152       -0.048845553       -0.945676902       -0.299636364       -0.945676902       -0.299636364       0.0171088073      -0.0488455558
         1.305e+09       0.016705249      -0.0493422776       -0.948858245       -0.289227687       -0.948858245       -0.289227687       0.0167052413      -0.0493422802
          1.31e+09      0.0162917282      -0.0498323162       -0.951925173       -0.278784883       -0.951925173       -0.278784883       0.0162917202      -0.0498323188
         1.315e+09      0.0158683656      -0.0503154273       -0.954877324        -0.26830921       -0.954877324        -0.26830921       0.0158683578      -0.0503154297
          1.32e+09      0.0154352807      -0.0507913707       -0.957714351       -0.257801934       -0.957714351       -0.257801934       0.0154352729       -0.050791373
         1.325e+09      0.0149925982      -0.0512599082       -0.960435922       -0.247264318       -0.960435922       -0.247264318       0.0149925904      -0.0512599105
          1.33e+09      0.0145404488       -0.051720804       -0.963041719       -0.236697631       -0.963041719       -0.236697631       0.0145404411      -0.0517208061
         1.335e+09       0.014078969      -0.0521738243       -0.965531435       -0.226103145       -0.965531435       -0.226103145       0.0140789613      -0.0521738263
          1.34e+09      0.0136083009      -0.0526187378       -0.967904781       -0.215482136       -0.967904781       -0.215482136       0.0136082933      -0.0526187397
         1.345e+09      0.0131285924      -0.0530553158       -0.970161481       -0.204835881       -0.970161481       -0.204835881       0.0131285848      -0.0530553176
          1.35e+09      0.0126399968      -0.0534833322       -0.972301272        -0.19416566       -0.972301272        -0.19416566       0.0126399894      -0.0534833339
         1.355e+09      0.0121426733      -0.0539025637       -0.974323905       -0.183472754       -0.974323905       -0.183472754       0.0121426659      -0.0539025653
          1.36e+09      0.0116367864      -0.0543127902       -0.976229147        -0.17275845       -0.976229147        -0.17275845       0.0116367791      -0.0543127917
         1.365e+09       0.011122509      -0.0547138075       -0.978016775       -0.162024042       -0.978016775       -0.162024042       0.0111225017      -0.0547138089
          1.37e+09      0.0106000105      -0.0551053748       -0.979686587       -0.151270801       -0.979686587       -0.151270801       0.0106000034      -0.0551053761
         1.375e+09       0.010069475      -0.0554872952       -0.981238391       -0.140500025       -0.981238391       -0.140500025       0.0100694679      -0.0554872965
          1.38e+09     0.00953108835      -0.0558593615       -0.982672008       -0.129713007       -0.982672008       -0.129713007      0.00953108136      -0.0558593627
         1.385e+09      0.0089850437      -0.0562213923       -0.983987275       -0.118911025       -0.983987275       -0.118911025      0.00898503674      -0.0562213933
          1.39e+09     0.00843153367      -0.0565731441       -0.985184042       -0.108095403       -0.985184042       -0.108095403      0.00843152709       -0.056573145
         1.395e+09     0.00787076199      -0.0569144423       -0.986262173      -0.0972674227       -0.986262173      -0.0972674227      0.00787075551      -0.0569144431
           1.4e+09     0.00730293523      -0.0572450951       -0.987221549      -0.0864283788       -0.987221549      -0.0864283788      0.00730292852      -0.0572450959
         1.405e+09     0.00672826455      -0.0575649149       -0.988062061      -0.0755795696       -0.988062061      -0.0755795696      0.00672825794      -0.0575649156
          1.41e+09     0.00614696624      -0.0578737182       -0.988783617       -0.064722293       -0.988783617       -0.064722293      0.00614696004      -0.0578737188
         1.415e+09      0.0055592629      -0.0581713253       -0.989386137      -0.0538578465       -0.989386137      -0.0538578465       0.0055592542      -0.0581713259
          1.42e+09     0.00496537644      -0.0584575618       -0.989869558      -0.0429875304       -0.989869558      -0.0429875304      0.00496537011      -0.0584575622
         1.425e+09     0.00436554049      -0.0587322576       -0.990233828      -0.0321126423       -0.990233828      -0.0321126423      0.00436553459       -0.058732258
          1.43e+09     0.00375998916      -0.0589952569       -0.990478909      -0.0212344802       -0.990478909      -0.0212344802      0.00375998303      -0.0589952572
         1.435e+09     0.00314896099      -0.0592463803        -0.99060478      -0.0103543449        -0.99060478      -0.0103543449      0.00314895496      -0.0592463805
          1.44e+09     0.00253269965      -0.0594854812       -0.990611432     0.000526463545       -0.990611432     0.000526463545      0.00253269408      -0.0594854814
         1.445e+09     0.00191145325      -0.0597124088        -0.99049887       0.0114066474        -0.99049887       0.0114066474      0.00191144743      -0.0597124089
          1.45e+09      0.0012854726       -0.059927018       -0.990267112       0.0222849111       -0.990267112       0.0222849111      0.00128546726      -0.0599270181
         1.455e+09    0.000655013889      -0.0601291684       -0.989916192       0.0331599583       -0.989916192       0.0331599583      0.00065500866      -0.0601291683
          1.46e+09    2.03366052e-05      -0.0603187249       -0.989446156       0.0440304929       -0.989446156       0.0440304929     2.03311222e-05      -0.0603187248
         1.465e+09   -0.000618296372      -0.0604955584       -0.988857065       0.0548952198       -0.988857065       0.0548952198     -0.00061830174      -0.0604955582
          1.47e+09    -0.00126061799       -0.060659545       -0.988148993       0.0657528453       -0.988148993       0.0657528453     -0.00126062324      -0.0606595448
         1.475e+09    -0.00190635788      -0.0608105664       -0.987322028       0.0766020768       -0.987322028       0.0766020768     -0.00190636301      -0.0608105661
          1.48e+09    -0.00255524225      -0.0609485102       -0.986376273       0.0874416232       -0.986376273       0.0874416232     -0.00255524727      -0.0609485099
         1.485e+09    -0.00320699408      -0.0610732697       -0.985311842       0.0982701948       -0.985311842       0.0982701948     -0.00320699897      -0.0610732693
          1.49e+09    -0.00386133318      -0.0611847443       -0.984128866        0.109086503       -0.984128866        0.109086503     -0.00386133795      -0.0611847439
         1.495e+09    -0.00451797634      -0.0612828392       -0.982827486        0.119889264       -0.982827486        0.119889264     -0.00451798099      -0.0612828388
           1.5e+09    -0.00517664121      -0.0613674632       -0.981407852        0.130677259       -0.981407852        0.130677259     -0.00517664573      -0.0613674627
         1.505e+09    -0.00583703149      -0.0614385388       -0.979870148        0.141449072       -0.979870148        0.141449072     -0.00583703586      -0.0614385383
          1.51e+09    -0.00649885936      -0.0614959875       -0.978214552        0.152203489       -0.978214552        0.152203489     -0.00649886363       -0.061495987
         1.515e+09    -0.00716183089      -0.0615397395        -0.97644126        0.162939235        -0.97644126        0.162939235     -0.00716183527       -0.061539739
          1.52e+09    -0.00782564998      -0.0615697311       -0.974550482        0.173655033       -0.974550482        0.173655033       -0.007825654      -0.0615697305
         1.525e+09    -0.00849001777      -0.0615859054       -0.972542443        0.184349611       -0.972542443        0.184349611     -0.00849002165      -0.0615859048
          1.53e+09    -0.00915463384      -0.0615882118       -0.970417379        0.195021699       -0.970417379        0.195021699     -0.00915463759      -0.0615882112
         1.535e+09    -0.00981919565      -0.0615766066       -0.968175541        0.205670033       -0.968175541        0.205670033     -0.00981919928      -0.0615766059
          1.54e+09     -0.0104833988      -0.0615510522       -0.965817194        0.216293345       -0.965817194        0.216293345      -0.0104834023      -0.0615510516
         1.545e+09     -0.0111469373      -0.0615115183       -0.963342613        0.226890377       -0.963342613        0.226890377      -0.0111469407      -0.0615115176
          1.55e+09     -0.0118095039      -0.0614579808       -0.960752089         0.23745987       -0.960752089         0.23745987      -0.0118095071      -0.0614579802
         1.555e+09     -0.0124707896      -0.0613904229       -0.958045926        0.248000571       -0.958045926        0.248000571      -0.0124707927      -0.0613904222
          1.56e+09     -0.0131304847      -0.0613088343       -0.955224439        0.258511229       -0.955224439        0.258511229      -0.0131304872      -0.0613088338
         1.565e+09     -0.0137882774      -0.0612132117       -0.952287957        0.268990598       -0.952287957        0.268990598      -0.0137882802       -0.061213211
          1.57e+09     -0.0144438566      -0.0611035588       -0.949236824        0.279437433       -0.949236824        0.279437433      -0.0144438592      -0.0611035581
