! Created Fri Aug  9 09:37:33 2024
! List of port names and net name(s): example Port n = <port_name> <net_name1> <net_name2> ...
! Port 1 = P1 P2 
! Port 2 = P2 P2 
# hz S ri R 50
! 2 Port Network Data from data block
! freq  reS11  imS11  reS21  imS21  reS12  imS12  reS22  imS22  
!     
             1e+09      0.0178805519     -0.00818950759       -0.379313381       -0.920405781       -0.379313381       -0.920405781       0.0178805555     -0.00818949844
         1.005e+09      0.0181742718     -0.00849857153       -0.388359331       -0.916589292       -0.388359331       -0.916589292       0.0181742754     -0.00849856239
          1.01e+09       0.018465442     -0.00881476936        -0.39736739       -0.912683326        -0.39736739       -0.912683326       0.0184654458     -0.00881476023
         1.015e+09      0.0187539019     -0.00913808156       -0.406336664       -0.908688254       -0.406336664       -0.908688254       0.0187539058     -0.00913807244
          1.02e+09      0.0190394904     -0.00946848502       -0.415266263       -0.904604457       -0.415266263       -0.904604457       0.0190394944     -0.00946847591
         1.025e+09      0.0193220465     -0.00980595307       -0.424155301       -0.900432324       -0.424155301       -0.900432324       0.0193220506     -0.00980594397
          1.03e+09      0.0196014092      -0.0101504555       -0.433002893       -0.896172253       -0.433002893       -0.896172253       0.0196014134      -0.0101504464
         1.035e+09      0.0198774175      -0.0105019584       -0.441808162       -0.891824653       -0.441808162       -0.891824653       0.0198774218      -0.0105019493
          1.04e+09      0.0201499106      -0.0108604244       -0.450570232       -0.887389939       -0.450570232       -0.887389939        0.020149915      -0.0108604153
         1.045e+09      0.0204187281      -0.0112258124       -0.459288231       -0.882868538       -0.459288231       -0.882868538       0.0204187325      -0.0112258033
          1.05e+09      0.0206837095      -0.0115980778       -0.467961294       -0.878260884       -0.467961294       -0.878260884       0.0206837141      -0.0115980688
         1.055e+09      0.0209446952      -0.0119771723       -0.476588558       -0.873567421       -0.476588558       -0.873567421       0.0209446999      -0.0119771633
          1.06e+09      0.0212015258      -0.0123630441       -0.485169164         -0.8687886       -0.485169164         -0.8687886       0.0212015305      -0.0123630351
         1.065e+09      0.0214540421      -0.0127556366       -0.493702258       -0.863924886       -0.493702258       -0.863924886       0.0214540469      -0.0127556277
          1.07e+09      0.0217020847      -0.0131548901       -0.502186993       -0.858976746       -0.502186993       -0.858976746       0.0217020897      -0.0131548812
         1.075e+09      0.0219454992      -0.0135607444       -0.510622521        -0.85394466       -0.510622521        -0.85394466       0.0219455043      -0.0135607355
          1.08e+09      0.0221841276      -0.0139731324       -0.519008003       -0.848829114       -0.519008003       -0.848829114       0.0221841328      -0.0139731235
         1.085e+09      0.0224178142      -0.0143919842       -0.527342605       -0.843630605       -0.527342605       -0.843630605       0.0224178195      -0.0143919754
          1.09e+09      0.0226464042      -0.0148172265       -0.535625496       -0.838349636       -0.535625496       -0.838349636       0.0226464095      -0.0148172177
         1.095e+09      0.0228697438      -0.0152487821       -0.543855851       -0.832986722       -0.543855851       -0.832986722       0.0228697493      -0.0152487734
           1.1e+09      0.0230876805      -0.0156865704       -0.552032851       -0.827542384       -0.552032851       -0.827542384        0.023087686      -0.0156865618
         1.105e+09      0.0233000628      -0.0161305074        -0.56015568       -0.822017153        -0.56015568       -0.822017153       0.0233000684      -0.0161304988
          1.11e+09      0.0235067406      -0.0165805054       -0.568223529       -0.816411566       -0.568223529       -0.816411566       0.0235067464      -0.0165804969
         1.115e+09      0.0237075652      -0.0170364732       -0.576235595       -0.810726171       -0.576235595       -0.810726171        0.023707571      -0.0170364647
          1.12e+09      0.0239023892      -0.0174983161       -0.584191077       -0.804961523       -0.584191077       -0.804961523       0.0239023951      -0.0174983077
         1.125e+09      0.0240910669      -0.0179659361       -0.592089185       -0.799118185       -0.592089185       -0.799118185       0.0240910729      -0.0179659277
          1.13e+09      0.0242734541      -0.0184392316        -0.59992913        -0.79319673        -0.59992913        -0.79319673       0.0242734602      -0.0184392233
         1.135e+09      0.0244494082      -0.0189180976        -0.60771013       -0.787197736        -0.60771013       -0.787197736       0.0244494144      -0.0189180894
          1.14e+09      0.0246188063      -0.0194024394       -0.615431405       -0.781121797       -0.615431405       -0.781121797       0.0246188125      -0.0194024312
         1.145e+09      0.0247814737      -0.0198921181       -0.623092196       -0.774969499       -0.623092196       -0.774969499         0.02478148        -0.01989211
          1.15e+09      0.0249372914      -0.0203870323       -0.630691735        -0.76874145       -0.630691735        -0.76874145       0.0249372978      -0.0203870242
         1.155e+09      0.0250861246      -0.0208870635       -0.638229264       -0.762438261       -0.638229264       -0.762438261        0.025086131      -0.0208870555
          1.16e+09      0.0252278403      -0.0213920903       -0.645704031       -0.756060553       -0.645704031       -0.756060553       0.0252278468      -0.0213920824
         1.165e+09      0.0253623077      -0.0219019879       -0.653115292       -0.749608952       -0.653115292       -0.749608952       0.0253623143        -0.02190198
          1.17e+09      0.0254893983      -0.0224166283       -0.660462308       -0.743084093       -0.660462308       -0.743084093        0.025489405      -0.0224166204
         1.175e+09       0.025608986      -0.0229358803       -0.667744347       -0.736486618       -0.667744347       -0.736486618       0.0256089927      -0.0229358726
          1.18e+09      0.0257209467      -0.0234596098       -0.674960684       -0.729817177       -0.674960684       -0.729817177       0.0257209535      -0.0234596022
         1.185e+09      0.0258251591      -0.0239876796         -0.6821106       -0.723076427         -0.6821106       -0.723076427        0.025825166      -0.0239876719
          1.19e+09      0.0259215043      -0.0245199492       -0.689193383       -0.716265033       -0.689193383       -0.716265033       0.0259215113      -0.0245199416
         1.195e+09       0.026009866      -0.0250562755       -0.696208328       -0.709383667       -0.696208328       -0.709383667       0.0260098731       -0.025056268
           1.2e+09      0.0260901305      -0.0255965123       -0.703154736       -0.702433009       -0.703154736       -0.702433009       0.0260901376      -0.0255965049
         1.205e+09      0.0261621869      -0.0261405106       -0.710031916       -0.695413743       -0.710031916       -0.695413743        0.026162194      -0.0261405033
          1.21e+09       0.026225927      -0.0266881186       -0.716839185       -0.688326564       -0.716839185       -0.688326564       0.0262259342      -0.0266881114
         1.215e+09      0.0262812455      -0.0272391817       -0.723575864       -0.681172172       -0.723575864       -0.681172172       0.0262812528      -0.0272391745
          1.22e+09      0.0263280402      -0.0277935425       -0.730241284       -0.673951275       -0.730241284       -0.673951275       0.0263280475      -0.0277935354
         1.225e+09      0.0263662116      -0.0283510411       -0.736834782       -0.666664586       -0.736834782       -0.666664586        0.026366219      -0.0283510341
          1.23e+09      0.0263956636      -0.0289115151       -0.743355704       -0.659312825       -0.743355704       -0.659312825        0.026395671      -0.0289115082
         1.235e+09      0.0264163028      -0.0294747992       -0.749803401       -0.651896722       -0.749803401       -0.651896722       0.0264163103      -0.0294747924
          1.24e+09      0.0264280393       -0.030040726       -0.756177232       -0.644417009       -0.756177232       -0.644417009       0.0264280469      -0.0300407193
         1.245e+09      0.0264307865      -0.0306091256       -0.762476566       -0.636874427       -0.762476566       -0.636874427       0.0264307941      -0.0306091189
          1.25e+09      0.0264244608      -0.0311798256       -0.768700778       -0.629269724       -0.768700778       -0.629269724       0.0264244684       -0.031179819
         1.255e+09      0.0264089824       -0.031752651       -0.774849249       -0.621603653       -0.774849249       -0.621603653       0.0264089901      -0.0317526445
          1.26e+09      0.0263842745      -0.0323274255       -0.780921371       -0.613876972       -0.780921371       -0.613876972       0.0263842822      -0.0323274192
         1.265e+09      0.0263502638      -0.0329039703       -0.786916542       -0.606090449       -0.786916542       -0.606090449       0.0263502716       -0.032903964
          1.27e+09      0.0263068807      -0.0334821042       -0.792834168       -0.598244853       -0.792834168       -0.598244853       0.0263068886      -0.0334820981
         1.275e+09      0.0262540592      -0.0340616443       -0.798673662       -0.590340963       -0.798673662       -0.590340963       0.0262540671      -0.0340616383
          1.28e+09      0.0261917368      -0.0346424057       -0.804434448       -0.582379562       -0.804434448       -0.582379562       0.0261917447      -0.0346423997
         1.285e+09      0.0261198547      -0.0352242015       -0.810115955        -0.57436144       -0.810115955        -0.57436144       0.0261198626      -0.0352241956
          1.29e+09       0.026038358      -0.0358068432       -0.815717622       -0.566287391       -0.815717622       -0.566287391        0.026038366      -0.0358068374
         1.295e+09      0.0259471954      -0.0363901404       -0.821238896       -0.558158216       -0.821238896       -0.558158216       0.0259472034      -0.0363901347
           1.3e+09      0.0258463195      -0.0369739013       -0.826679232       -0.549974722       -0.826679232       -0.549974722       0.0258463275      -0.0369738957
         1.305e+09      0.0257356868      -0.0375579323       -0.832038092       -0.541737719       -0.832038092       -0.541737719       0.0257356948      -0.0375579269
          1.31e+09      0.0256152576      -0.0381420386        -0.83731495       -0.533448024        -0.83731495       -0.533448024       0.0256152656      -0.0381420332
         1.315e+09      0.0254849962      -0.0387260237       -0.842509285        -0.52510646       -0.842509285        -0.52510646       0.0254850042      -0.0387260184
          1.32e+09      0.0253448709        -0.03930969       -0.847620586       -0.516713853       -0.847620586       -0.516713853        0.025344879      -0.0393096848
         1.325e+09      0.0251948541      -0.0398928385       -0.852648349       -0.508271036       -0.852648349       -0.508271036       0.0251948622      -0.0398928335
          1.33e+09      0.0250349222      -0.0404752693       -0.857592081       -0.499778845       -0.857592081       -0.499778845       0.0250349303      -0.0404752643
         1.335e+09      0.0248650556      -0.0410567811       -0.862451297       -0.491238124       -0.862451297       -0.491238124       0.0248650637      -0.0410567763
          1.34e+09      0.0246852389       -0.041637172       -0.867225519       -0.482649717       -0.867225519       -0.482649717        0.024685247      -0.0416371672
         1.345e+09       0.024495461      -0.0422162388       -0.871914279       -0.474014477       -0.871914279       -0.474014477        0.024495469      -0.0422162342
          1.35e+09      0.0242957147      -0.0427937777       -0.876517118        -0.46533326       -0.876517118        -0.46533326       0.0242957228      -0.0427937732
         1.355e+09      0.0240859972      -0.0433695843       -0.881033586       -0.456606924       -0.881033586       -0.456606924       0.0240860053      -0.0433695799
          1.36e+09        0.02386631      -0.0439434533       -0.885463241       -0.447836336       -0.885463241       -0.447836336       0.0238663181       -0.043943449
         1.365e+09      0.0236366587       -0.044515179       -0.889805649       -0.439022364       -0.889805649       -0.439022364       0.0236366668      -0.0445151748
          1.37e+09      0.0233970533      -0.0450845551       -0.894060388       -0.430165881       -0.894060388       -0.430165881       0.0233970613       -0.045084551
         1.375e+09      0.0231475079      -0.0456513752       -0.898227043       -0.421267763       -0.898227043       -0.421267763       0.0231475159      -0.0456513712
          1.38e+09      0.0228880412      -0.0462154324       -0.902305207       -0.412328892       -0.902305207       -0.412328892       0.0228880492      -0.0462154285
         1.385e+09       0.022618676      -0.0467765196       -0.906294484       -0.403350153       -0.906294484       -0.403350153        0.022618684      -0.0467765158
          1.39e+09      0.0223394396      -0.0473344297       -0.910194486       -0.394332433       -0.910194486       -0.394332433       0.0223394476       -0.047334426
         1.395e+09      0.0220503635      -0.0478889555       -0.914004835       -0.385276625       -0.914004835       -0.385276625       0.0220503715       -0.047888952
           1.4e+09      0.0217514838      -0.0484398901       -0.917725161       -0.376183624       -0.917725161       -0.376183624       0.0217514918      -0.0484398866
         1.405e+09      0.0214428409      -0.0489870264       -0.921355104        -0.36705433       -0.921355104        -0.36705433       0.0214428488       -0.048987023
          1.41e+09      0.0211244793      -0.0495301578       -0.924894312       -0.357889644       -0.924894312       -0.357889644       0.0211244872      -0.0495301546
         1.415e+09      0.0207964483      -0.0500690782       -0.928342445       -0.348690473       -0.928342445       -0.348690473       0.0207964561      -0.0500690751
          1.42e+09      0.0204588013      -0.0506035816       -0.931699169       -0.339457724       -0.931699169       -0.339457724       0.0204588091      -0.0506035786
         1.425e+09      0.0201115962      -0.0511334629       -0.934964161       -0.330192311       -0.934964161       -0.330192311       0.0201116039      -0.0511334599
          1.43e+09      0.0197548953      -0.0516585173       -0.938137107       -0.320895146       -0.938137107       -0.320895146        0.019754903      -0.0516585145
         1.435e+09      0.0193887652       -0.052178541       -0.941217701       -0.311567148       -0.941217701       -0.311567148       0.0193887729      -0.0521785383
          1.44e+09      0.0190132771      -0.0526933307       -0.944205649       -0.302209238       -0.944205649       -0.302209238       0.0190132847       -0.052693328
         1.445e+09      0.0186285142      -0.0532027101       -0.947100664       -0.292822337       -0.947100664       -0.292822337       0.0186285217      -0.0532027076
          1.45e+09      0.0182345401      -0.0537064265        -0.94990247       -0.283407373        -0.94990247       -0.283407373       0.0182345476      -0.0537064241
         1.455e+09      0.0178314472      -0.0542043059       -0.952610799       -0.273965271       -0.952610799       -0.273965271       0.0178314547      -0.0542043035
          1.46e+09      0.0174193238      -0.0546961493       -0.955225394       -0.264496961       -0.955225394       -0.264496961       0.0174193312       -0.054696147
         1.465e+09      0.0169982627      -0.0551817592       -0.957746006       -0.255003375       -0.957746006       -0.255003375         0.01699827      -0.0551817571
          1.47e+09      0.0165683602      -0.0556609399       -0.960172395       -0.245485447       -0.960172395       -0.245485447       0.0165683689      -0.0556609375
         1.475e+09      0.0161297198      -0.0561334956       -0.962504331       -0.235944113       -0.962504331       -0.235944113        0.016129727      -0.0561334937
          1.48e+09      0.0156824448      -0.0565992342       -0.964741595       -0.226380312       -0.964741595       -0.226380312        0.015682452      -0.0565992324
         1.485e+09      0.0152266459       -0.057057964       -0.966883975       -0.216794983       -0.966883975       -0.216794983        0.015226653      -0.0570579622
          1.49e+09       0.014762437      -0.0575094951        -0.96893127       -0.207189068        -0.96893127       -0.207189068        0.014762444      -0.0575094934
         1.495e+09      0.0142899363      -0.0579536397       -0.970883288        -0.19756351       -0.970883288        -0.19756351       0.0142899433      -0.0579536381
           1.5e+09      0.0138092662      -0.0583902119       -0.972739845       -0.187919253       -0.972739845       -0.187919253       0.0138092731      -0.0583902104
         1.505e+09      0.0133205531      -0.0588190279       -0.974500769       -0.178257244       -0.974500769       -0.178257244       0.0133205599      -0.0588190265
          1.51e+09       0.012823925      -0.0592399116       -0.976165906        -0.16857837       -0.976165906        -0.16857837       0.0128239317      -0.0592399103
         1.515e+09      0.0123195215      -0.0596526715       -0.977735081         -0.1588837       -0.977735081         -0.1588837       0.0123195281      -0.0596526703
          1.52e+09      0.0118074787      -0.0600571364       -0.979208159       -0.149174123       -0.979208159       -0.149174123       0.0118074852      -0.0600571352
         1.525e+09      0.0112879393      -0.0604531313       -0.980585006        -0.13945059       -0.980585006        -0.13945059       0.0112879457      -0.0604531302
          1.53e+09      0.0107610497      -0.0608404838       -0.981865494       -0.129714053       -0.981865494       -0.129714053       0.0107610561      -0.0608404828
         1.535e+09      0.0102269604       -0.061219024       -0.983049508       -0.119965464       -0.983049508       -0.119965464       0.0102269667      -0.0612190231
          1.54e+09     0.00968582561      -0.0615885847       -0.984136939       -0.110205776       -0.984136939       -0.110205776      0.00968583176      -0.0615885838
         1.545e+09     0.00913780333      -0.0619490012       -0.985127691       -0.100435943       -0.985127691       -0.100435943      0.00913780939      -0.0619490004
          1.55e+09     0.00858305538      -0.0623001118       -0.986021674      -0.0906569203       -0.986021674      -0.0906569203      0.00858306134      -0.0623001111
         1.555e+09     0.00802174725      -0.0626417577        -0.98681881      -0.0808696609        -0.98681881      -0.0808696609       0.0080217531       -0.062641757
          1.56e+09     0.00745404839      -0.0629737897       -0.987519028      -0.0710751203       -0.987519028      -0.0710751203      0.00745405414      -0.0629737891
         1.565e+09     0.00688013085      -0.0632960422        -0.98812227      -0.0612742543        -0.98812227      -0.0612742543      0.00688013649      -0.0632960417
          1.57e+09     0.00630017124      -0.0636083716       -0.988628483      -0.0514680182       -0.988628483      -0.0514680182      0.00630017678      -0.0636083711
