! Created Fri Aug  9 08:59:16 2024
! List of port names and net name(s): example Port n = <port_name> <net_name1> <net_name2> ...
! Port 1 = P1 P1 
! Port 2 = P2 P2 
# hz S ri R 50
! 2 Port Network Data from data block
! freq  reS11  imS11  reS21  imS21  reS12  imS12  reS22  imS22  
!     
             1e+09      -0.714646793       -0.693171396     7.25132086e-05      0.00153272951     7.25132086e-05      0.00153272951       -0.713330838       -0.694550751
         1.005e+09      -0.722885446       -0.684497506     9.54135894e-05      0.00155020367     9.54135894e-05      0.00155020367       -0.721577211       -0.685902312
          1.01e+09      -0.731023696       -0.675720042     0.000118854424      0.00156734799     0.000118854424      0.00156734799       -0.729723564       -0.677150378
         1.015e+09      -0.739060268       -0.666840008     0.000142831577      0.00158414724     0.000142831577      0.00158414724       -0.737768627       -0.668295947
          1.02e+09      -0.746993896       -0.657858417     0.000167340558      0.00160058623     0.000167340558      0.00160058623       -0.745711135       -0.659340032
         1.025e+09      -0.754823319       -0.648776301     0.000192376448      0.00161664978     0.000192376448      0.00161664978       -0.753549833       -0.650283655
          1.03e+09      -0.762547285       -0.639594701     0.000217933909      0.00163232272     0.000217933909      0.00163232272       -0.761283472       -0.641127857
         1.035e+09      -0.770164547       -0.630314675     0.000244007197      0.00164758992     0.000244007197      0.00164758992       -0.768910809       -0.631873689
          1.04e+09      -0.777673867       -0.620937292     0.000270590143       0.0016624363     0.000270590143       0.0016624363       -0.776430608       -0.622522218
         1.045e+09      -0.785074013       -0.611463636     0.000297676174      0.00167684684     0.000297676174      0.00167684684       -0.783841642       -0.613074523
          1.05e+09      -0.792363762       -0.601894806     0.000325258289      0.00169080658     0.000325258289      0.00169080658       -0.791142689       -0.603531698
         1.055e+09      -0.799541895       -0.592231913     0.000353329083      0.00170430064     0.000353329083      0.00170430064       -0.798332538       -0.593894847
          1.06e+09      -0.806607204       -0.582476081     0.000381880718      0.00171731424     0.000381880718      0.00171731424       -0.805409982       -0.584165093
         1.065e+09      -0.813558488       -0.572628452     0.000410904946      0.00172983268     0.000410904946      0.00172983268       -0.812373824       -0.574343571
          1.07e+09      -0.820394554       -0.562690178     0.000440393099      0.00174184139     0.000440393099      0.00174184139       -0.819222872        -0.56443143
         1.075e+09      -0.827114213       -0.552662424     0.000470336092      0.00175332591     0.000470336092      0.00175332591       -0.825955945       -0.554429828
          1.08e+09      -0.833716289       -0.542546373      0.00050072442       0.0017642719      0.00050072442       0.0017642719       -0.832571866       -0.544339945
         1.085e+09      -0.840199609       -0.532343218     0.000531548166      0.00177466519     0.000531548166      0.00177466519        -0.83906947       -0.534162966
          1.09e+09      -0.846563014       -0.522054168     0.000562796991      0.00178449175     0.000562796991      0.00178449175       -0.845447597       -0.523900097
         1.095e+09      -0.852805347       -0.511680446     0.000594460146      0.00179373771     0.000594460146      0.00179373771       -0.851705098       -0.513552553
           1.1e+09      -0.858925465       -0.501223289     0.000626526462      0.00180238939     0.000626526462      0.00180238939       -0.857840829       -0.503121572
         1.105e+09      -0.864922228       -0.490683948     0.000658984371      0.00181043328     0.000658984371      0.00181043328       -0.863853657       -0.492608392
          1.11e+09       -0.87079451       -0.480063689      0.00069182188      0.00181785609      0.00069182188      0.00181785609       -0.869742455       -0.482014278
         1.115e+09      -0.876541189       -0.469363792     0.000725026606      0.00182464472     0.000725026606      0.00182464472        -0.87550611       -0.471340501
          1.12e+09      -0.882161154       -0.458585549     0.000758585747      0.00183078631     0.000758585747      0.00183078631        -0.88114351       -0.460588351
         1.125e+09      -0.887653302       -0.447730269     0.000792486108      0.00183626821     0.000792486108      0.00183626821       -0.886653557       -0.449759129
          1.13e+09      -0.893016541       -0.436799276     0.000826714094      0.00184107803     0.000826714094      0.00184107803       -0.892035162       -0.438854153
         1.135e+09      -0.898249786       -0.425793905     0.000861255707      0.00184520362     0.000861255707      0.00184520362       -0.897287243       -0.427874754
          1.14e+09      -0.903351962       -0.414715509     0.000896096542      0.00184863311     0.000896096542      0.00184863311       -0.902408729       -0.416822276
         1.145e+09      -0.908322004       -0.403565453     0.000931221862      0.00185135491     0.000931221862      0.00185135491       -0.907398556       -0.405698081
          1.15e+09      -0.913158855       -0.392345119     0.000966616513       0.0018533577     0.000966616513       0.0018533577       -0.912255672       -0.394503542
         1.155e+09       -0.91786147       -0.381055902      0.00100226497      0.00185463046      0.00100226497      0.00185463046       -0.916979035       -0.383240047
          1.16e+09      -0.922428811       -0.369699212      0.00103815133       0.0018551625      0.00103815133       0.0018551625        -0.92156761       -0.371909003
         1.165e+09      -0.926859853       -0.358276474      0.00107425932      0.00185494342      0.00107425932      0.00185494342       -0.926020375       -0.360511823
          1.17e+09      -0.931153579       -0.346789128       0.0011105723      0.00185396319       0.0011105723      0.00185396319       -0.930336316       -0.349049945
         1.175e+09      -0.935308984       -0.335238628      0.00114707329      0.00185221208      0.00114707329      0.00185221208       -0.934514431       -0.337524815
          1.18e+09      -0.939325072       -0.323626444      0.00118374495      0.00184968074      0.00118374495      0.00184968074       -0.938553726       -0.325937896
         1.185e+09      -0.943200858        -0.31195406      0.00122056958      0.00184636018      0.00122056958      0.00184636018        -0.94245322       -0.314290665
          1.19e+09       -0.94693537       -0.300222977      0.00125754277      0.00184219839      0.00125754277      0.00184219839       -0.946211943       -0.302584615
         1.195e+09      -0.950527643       -0.288434709      0.00129461864      0.00183727293      0.00129461864      0.00183727293       -0.949828934       -0.290821254
           1.2e+09      -0.953976727       -0.276590786      0.00133179241      0.00183153356      0.00133179241      0.00183153356       -0.953303244       -0.279002103
         1.205e+09      -0.957281682       -0.264692753      0.00136904505      0.00182497286      0.00136904505      0.00182497286       -0.956633936       -0.267128701
          1.21e+09      -0.960441579        -0.25274217      0.00140635726      0.00181758379      0.00140635726      0.00181758379       -0.959820084         -0.2552026
         1.215e+09      -0.963455502       -0.240740614      0.00144370943      0.00180935978      0.00144370943      0.00180935978       -0.962860775        -0.24322537
          1.22e+09      -0.966322545       -0.228689676      0.00148108165      0.00180029465      0.00148108165      0.00180029465       -0.965755106       -0.231198592
         1.225e+09      -0.969041817       -0.216590962      0.00151845374       0.0017903827      0.00151845374       0.0017903827       -0.968502187       -0.219123865
          1.23e+09      -0.971612438       -0.204446094      0.00155580522      0.00177961867      0.00155580522      0.00177961867        -0.97110114       -0.207002805
         1.235e+09       -0.97403354       -0.192256711      0.00159311537      0.00176799778      0.00159311537      0.00176799778       -0.973551101        -0.19483704
          1.24e+09       -0.97630427       -0.180024465      0.00163036318      0.00175551569      0.00163036318      0.00175551569       -0.975851218       -0.182628216
         1.245e+09      -0.978423786       -0.167751025      0.00166752742      0.00174216858      0.00166752742      0.00174216858       -0.978000651       -0.170377992
          1.25e+09       -0.98039126       -0.155438076      0.00170458661       0.0017279531      0.00170458661       0.0017279531       -0.979998575       -0.158088045
         1.255e+09      -0.982205879       -0.143087319      0.00174151904      0.00171286641      0.00174151904      0.00171286641        -0.98184418       -0.145760067
          1.26e+09      -0.983866843        -0.13070047      0.00177830276      0.00169690619      0.00177830276      0.00169690619       -0.983536664       -0.133395766
         1.265e+09      -0.985373364        -0.11827926      0.00181491565      0.00168007062      0.00181491565      0.00168007062       -0.985075245       -0.120996863
          1.27e+09       -0.98672467       -0.105825437      0.00185133538      0.00166235841      0.00185133538      0.00166235841       -0.986459151       -0.108565099
         1.275e+09      -0.987920006       -0.093340765      0.00188753944      0.00164376882      0.00188753944      0.00164376882       -0.987687627      -0.0961022264
          1.28e+09      -0.988958627       -0.080827023      0.00192350514      0.00162430163      0.00192350514      0.00162430163       -0.988759933      -0.0836100163
         1.285e+09      -0.989839808      -0.0682860068      0.00195920964      0.00160395719      0.00195920964      0.00160395719       -0.989675343       -0.071090255
          1.29e+09      -0.990562837       -0.055719528      0.00199462992      0.00158273641      0.00199462992      0.00158273641       -0.990433147      -0.0585447468
         1.295e+09      -0.991127018       -0.043129414      0.00202974285      0.00156064075      0.00202974285      0.00156064075        -0.99103265      -0.0459753017
           1.3e+09      -0.991531671      -0.0305175084      0.00206452516      0.00153767225      0.00206452516      0.00153767225       -0.991473174      -0.0333837618
         1.305e+09      -0.991776132      -0.0178856707      0.00209895348      0.00151383354      0.00209895348      0.00151383354       -0.991754055      -0.0207719742
          1.31e+09      -0.991859756     -0.00523577652      0.00213300432      0.00148912783      0.00213300432      0.00148912783        -0.99187465     -0.00814180359
         1.315e+09      -0.991781912      0.00743028253      0.00216665412       0.0014635589      0.00216665412       0.0014635589       -0.991834328      0.00450486806
          1.32e+09      -0.991541988       0.0201105987      0.00219987924      0.00143713117      0.00219987924      0.00143713117       -0.991632477       0.0171661438
         1.325e+09       -0.99113939       0.0328032483      0.00223265598      0.00140984964      0.00223265598      0.00140984964       -0.991268505       0.0298401095
          1.33e+09      -0.990573539       0.0455062915      0.00226496059      0.00138171992      0.00226496059      0.00138171992       -0.990741833       0.0425248358
         1.335e+09      -0.989843878       0.0582177723       0.0022967693      0.00135274824       0.0022967693      0.00135274824       -0.990051905       0.0552183785
          1.34e+09      -0.988949868       0.0709357191      0.00232805831      0.00132294145      0.00232805831      0.00132294145        -0.98919818       0.0679187733
         1.345e+09      -0.987890986       0.0836581438      0.00235880384      0.00129230701      0.00235880384      0.00129230701       -0.988180137       0.0806240516
          1.35e+09      -0.986666731       0.0963830425      0.00238898207      0.00126085305      0.00238898207      0.00126085305       -0.986997275       0.0933322123
         1.355e+09      -0.985276623        0.109108395      0.00241856927       0.0012285883      0.00241856927       0.0012285883       -0.985649111        0.106041249
          1.36e+09      -0.983720198        0.121832167       0.0024475417      0.00119552212       0.0024475417      0.00119552212       -0.984135184        0.118749138
         1.365e+09      -0.981997015        0.134552305      0.00247587572      0.00116166454      0.00247587572      0.00116166454       -0.982455052         0.13145384
          1.37e+09      -0.980106655        0.147266743      0.00250354772      0.00112702621      0.00250354772      0.00112702621       -0.980608293        0.144153295
         1.375e+09      -0.978048717        0.159973398       0.0025305342      0.00109161843       0.0025305342      0.00109161843       -0.978594506        0.156845441
          1.38e+09      -0.975822824         0.17267017      0.00255681177      0.00105545317      0.00255681177      0.00105545317       -0.976413314         0.16952818
         1.385e+09       -0.97342862        0.185354945      0.00258235712      0.00101854303      0.00258235712      0.00101854303        -0.97406436        0.182199416
          1.39e+09      -0.970865773        0.198025592      0.00260714712     0.000980901263      0.00260714712     0.000980901263       -0.971547308        0.194857029
         1.395e+09      -0.968133971        0.210679968      0.00263115879     0.000942541775      0.00263115879     0.000942541775       -0.968861847        0.207498886
           1.4e+09      -0.965232927        0.223315909      0.00265436931     0.000903479135      0.00265436931     0.000903479135       -0.966007688        0.220122836
         1.405e+09      -0.962162378        0.235931242      0.00267675603     0.000863728543      0.00267675603     0.000863728543       -0.962984564        0.232726723
          1.41e+09      -0.958922081        0.248523782      0.00269829651     0.000823305891      0.00269829651     0.000823305891       -0.959792236        0.245308352
         1.415e+09      -0.955511829        0.261091297      0.00271896853     0.000782227699      0.00271896853     0.000782227699       -0.956430482        0.257865559
          1.42e+09      -0.951931425        0.273631593      0.00273875012     0.000740511152      0.00273875012     0.000740511152       -0.952899113        0.270396108
         1.425e+09      -0.948180705        0.286142424      0.00275761952     0.000698174083      0.00275761952     0.000698174083       -0.949197961        0.282897785
          1.43e+09      -0.944259532         0.29862154      0.00277555527     0.000655234988      0.00277555527     0.000655234988       -0.945326883        0.295368351
         1.435e+09      -0.940167793        0.311066676      0.00279253618     0.000611712983      0.00279253618     0.000611712983       -0.941285763        0.307805561
          1.44e+09      -0.935905402        0.323475549      0.00280854139     0.000567627886      0.00280854139     0.000567627886       -0.937074514        0.320207138
         1.445e+09      -0.931472301        0.335845867      0.00282355032     0.000523000128      0.00282355032     0.000523000128       -0.932693075        0.332570801
          1.45e+09      -0.926868459        0.348175324      0.00283754275     0.000477850743      0.00283754275     0.000477850743       -0.928141405        0.344894271
         1.455e+09       -0.92209387        0.360461599      0.00285049881     0.000432201469      0.00285049881     0.000432201469         -0.9234195        0.357175228
          1.46e+09      -0.917148562        0.372702359      0.00286239899     0.000386074639      0.00286239899     0.000386074639        -0.91852738        0.369411357
         1.465e+09      -0.912032589        0.384895255      0.00287322419     0.000339493229      0.00287322419     0.000339493229       -0.913465096        0.381600322
          1.47e+09      -0.906746034        0.397037925      0.00288295569     0.000292480841      0.00288295569     0.000292480841       -0.908232726        0.393739777
         1.475e+09      -0.901289011        0.409127997       0.0028915752     0.000245061693       0.0028915752     0.000245061693       -0.902830379        0.405827362
          1.48e+09      -0.895661667        0.421163083      0.00289906488     0.000197260623      0.00289906488     0.000197260623       -0.897258194        0.417860705
         1.485e+09      -0.889864175        0.433140786      0.00290540734     0.000149103072      0.00290540734     0.000149103072       -0.891516341        0.429837421
          1.49e+09      -0.883896742        0.445058694      0.00291058566     0.000100615086      0.00291058566     0.000100615086       -0.885605021        0.441755114
         1.495e+09      -0.877759609        0.456914385       0.0029145834     5.18233035e-05       0.0029145834     5.18233035e-05       -0.879524467        0.453611376
           1.5e+09      -0.871453047        0.468705425      0.00291738466     2.75495565e-06      0.00291738466     2.75495565e-06       -0.873274943        0.465403788
         1.505e+09      -0.864977359        0.480429369      0.00291897403    -4.65621508e-05      0.00291897403    -4.65621508e-05       -0.866856747        0.477129919
          1.51e+09      -0.858332884        0.492083763      0.00291933663    -9.60996156e-05      0.00291933663    -9.60996156e-05        -0.86027021        0.488787329
         1.515e+09      -0.851519946        0.503666218      0.00291845808    -0.000145828846      0.00291845808    -0.000145828846       -0.853515648        0.500373646
          1.52e+09      -0.844539045        0.515174101      0.00291632486    -0.000195719694      0.00291632486    -0.000195719694       -0.846593554        0.511886248
         1.525e+09      -0.837390576        0.526605005      0.00291292374    -0.000245742452      0.00291292374    -0.000245742452       -0.839504313        0.523322747
          1.53e+09      -0.830075016        0.537956436      0.00290824219    -0.000295866546      0.00290824219    -0.000295866546       -0.832248394        0.534680661
         1.535e+09      -0.822592871        0.549225899       0.0029022683     -0.00034606089       0.0029022683     -0.00034606089       -0.824826307        0.545957493
          1.54e+09       -0.81494471        0.560410852      0.00289499081    -0.000396293853      0.00289499081    -0.000396293853       -0.817238576         0.55715077
         1.545e+09      -0.807131099        0.571508806      0.00288639909    -0.000446533341      0.00288639909    -0.000446533341       -0.809485795         0.56825796
          1.55e+09      -0.799152668        0.582517223      0.00287648319    -0.000496746782      0.00287648319    -0.000496746782       -0.801568565        0.579276571
         1.555e+09      -0.791010078        0.593433568      0.00286523386    -0.000546901067      0.00286523386    -0.000546901067       -0.793487545        0.590204069
          1.56e+09      -0.782704031          0.6042553      0.00285264253    -0.000596962673      0.00285264253    -0.000596962673       -0.785243422        0.601037933
         1.565e+09      -0.774235264        0.614979872      0.00283870133    -0.000646897611      0.00283870133    -0.000646897611       -0.776836924        0.611775633
          1.57e+09      -0.765604557        0.625604732      0.00282340316     -0.00069667144      0.00282340316     -0.00069667144        -0.76826882        0.622414624
