! Created Fri Aug  9 09:24:34 2024
! List of port names and net name(s): example Port n = <port_name> <net_name1> <net_name2> ...
! Port 1 = P1 P2 
! Port 2 = P2 P2 
# hz S ri R 50
! 2 Port Network Data from data block
! freq  reS11  imS11  reS21  imS21  reS12  imS12  reS22  imS22  
!     
             1e+09     -0.0190967487      -0.0198212147        0.693268823         -0.7179419        0.693268823         -0.7179419      -0.0190967525      -0.0198212109
         1.005e+09     -0.0192133745      -0.0197765505        0.690361245         -0.7207243        0.690361245         -0.7207243      -0.0192133783      -0.0197765467
          1.01e+09     -0.0193290804      -0.0197303215        0.687442252       -0.723495123        0.687442252       -0.723495123      -0.0193290842      -0.0197303176
         1.015e+09      -0.019443849      -0.0196825344        0.684511887       -0.726254322        0.684511887       -0.726254322      -0.0194438528      -0.0196825305
          1.02e+09     -0.0195576624      -0.0196331964        0.681570194        -0.72900185        0.681570194        -0.72900185       -0.019557667      -0.0196331917
         1.025e+09     -0.0196705045      -0.0195823135        0.678617218       -0.731737661        0.678617218       -0.731737661      -0.0196705084      -0.0195823094
          1.03e+09     -0.0197823569      -0.0195298939        0.675653002       -0.734461708        0.675653002       -0.734461708      -0.0197823608      -0.0195298898
         1.035e+09     -0.0198932026      -0.0194759448        0.672677592       -0.737173945        0.672677592       -0.737173945      -0.0198932065      -0.0194759406
          1.04e+09     -0.0200030245      -0.0194204736        0.669691031       -0.739874327        0.669691031       -0.739874327      -0.0200030284      -0.0194204694
         1.045e+09     -0.0201118053      -0.0193634882        0.666693364       -0.742562806        0.666693364       -0.742562806      -0.0201118093      -0.0193634839
          1.05e+09     -0.0202195281      -0.0193049964        0.663684637       -0.745239338        0.663684637       -0.745239338       -0.020219532      -0.0193049921
         1.055e+09     -0.0203261759      -0.0192450061        0.660664894       -0.747903877        0.660664894       -0.747903877      -0.0203261794      -0.0192450022
          1.06e+09     -0.0204317316      -0.0191835258        0.657634182       -0.750556378        0.657634182       -0.750556378      -0.0204317348      -0.0191835223
         1.065e+09      -0.020536179       -0.019120564        0.654592545       -0.753196795        0.654592545       -0.753196795      -0.0205361819      -0.0191205608
          1.07e+09     -0.0206395007      -0.0190561301        0.651540031       -0.755825083        0.651540031       -0.755825083      -0.0206395047      -0.0190561255
         1.075e+09     -0.0207416805      -0.0189902308        0.648476683       -0.758441197        0.648476683       -0.758441197      -0.0207416837      -0.0189902272
          1.08e+09     -0.0208427001      -0.0189228772        0.645402549       -0.761045092        0.645402549       -0.761045092      -0.0208427042      -0.0189228726
         1.085e+09     -0.0209425439      -0.0188540769        0.642317674       -0.763636724        0.642317674       -0.763636724       -0.020942548      -0.0188540722
          1.09e+09      -0.021041195      -0.0187838398        0.639222105       -0.766216048        0.639222105       -0.766216048      -0.0210411991       -0.018783835
         1.095e+09     -0.0211386368      -0.0187121751        0.636115888        -0.76878302        0.636115888        -0.76878302      -0.0211386409      -0.0187121704
           1.1e+09     -0.0212348528      -0.0186390927        0.632999071       -0.771337594        0.632999071       -0.771337594      -0.0212348569      -0.0186390879
         1.105e+09     -0.0213298267      -0.0185646023          0.6298717       -0.773879729          0.6298717       -0.773879729      -0.0213298308      -0.0185645974
          1.11e+09     -0.0214235421      -0.0184887137        0.626733822       -0.776409378        0.626733822       -0.776409378      -0.0214235463      -0.0184887087
         1.115e+09     -0.0215159829      -0.0184114372        0.623585485         -0.7789265        0.623585485         -0.7789265       -0.021515987      -0.0184114322
          1.12e+09     -0.0216071327       -0.018332783        0.620426736       -0.781431049        0.620426736       -0.781431049      -0.0216071369      -0.0183327779
         1.125e+09      -0.021696976       -0.018252761        0.617257623       -0.783922983        0.617257623       -0.783922983      -0.0216969794       -0.018252757
          1.13e+09     -0.0217854955      -0.0181713836        0.614078193       -0.786402258        0.614078193       -0.786402258      -0.0217854997      -0.0181713784
         1.135e+09      -0.021872677      -0.0180886593        0.610888496       -0.788868831        0.610888496       -0.788868831      -0.0218726804      -0.0180886551
          1.14e+09     -0.0219585025      -0.0180046016        0.607688578        -0.79132266        0.607688578        -0.79132266      -0.0219585075      -0.0180045953
         1.145e+09     -0.0220429594       -0.017919218        0.604478488       -0.793763701        0.604478488       -0.793763701      -0.0220429625      -0.0179192141
          1.15e+09     -0.0221260289      -0.0178325233        0.601258276       -0.796191911        0.601258276       -0.796191911      -0.0221260323       -0.017832519
         1.155e+09     -0.0222076964      -0.0177445279        0.598027988       -0.798607249        0.598027988       -0.798607249      -0.0222077007      -0.0177445224
          1.16e+09     -0.0222879472      -0.0176552426        0.594787676       -0.801009672        0.594787676       -0.801009672      -0.0222879515       -0.017655237
         1.165e+09     -0.0223667654      -0.0175646796        0.591537387       -0.803399137        0.591537387       -0.803399137      -0.0223667696       -0.017564674
          1.17e+09     -0.0224441356      -0.0174728508         0.58827717       -0.805775603         0.58827717       -0.805775603      -0.0224441399      -0.0174728451
         1.175e+09     -0.0225200427      -0.0173797684        0.585007076       -0.808139028        0.585007076       -0.808139028       -0.022520047      -0.0173797627
          1.18e+09     -0.0225944721      -0.0172854437        0.581727154        -0.81048937        0.581727154        -0.81048937      -0.0225944752      -0.0172854397
         1.185e+09     -0.0226674075      -0.0171898911        0.578437453       -0.812826588        0.578437453       -0.812826588       -0.022667411      -0.0171898865
          1.19e+09     -0.0227388351      -0.0170931216        0.575138024        -0.81515064        0.575138024        -0.81515064      -0.0227388382      -0.0170931174
         1.195e+09     -0.0228087389      -0.0169951494        0.571828916       -0.817461485        0.571828916       -0.817461485      -0.0228087432      -0.0169951434
           1.2e+09     -0.0228771056      -0.0168959855        0.568510181       -0.819759082        0.568510181       -0.819759082      -0.0228771099      -0.0168959795
         1.205e+09     -0.0229439203      -0.0167956431        0.565181868        -0.82204339        0.565181868        -0.82204339      -0.0229439238      -0.0167956383
          1.21e+09     -0.0230091674      -0.0166941374        0.561844027       -0.824314368        0.561844027       -0.824314368      -0.0230091717      -0.0166941312
         1.215e+09     -0.0230728341       -0.016591479        0.558496711       -0.826571977        0.558496711       -0.826571977      -0.0230728375      -0.0165914741
          1.22e+09     -0.0231349044      -0.0164876841        0.555139969       -0.828816175        0.555139969       -0.828816175      -0.0231349087      -0.0164876778
         1.225e+09     -0.0231953654      -0.0163827644        0.551773853       -0.831046922        0.551773853       -0.831046922      -0.0231953697       -0.016382758
          1.23e+09     -0.0232542026      -0.0162767343        0.548398415       -0.833264179        0.548398415       -0.833264179      -0.0232542069      -0.0162767278
         1.235e+09     -0.0233114024       -0.016169607        0.545013705       -0.835467905        0.545013705       -0.835467905      -0.0233114059      -0.0161696019
          1.24e+09     -0.0233669498      -0.0160613988        0.541619776       -0.837658061        0.541619776       -0.837658061      -0.0233669542      -0.0160613923
         1.245e+09     -0.0234208323      -0.0159521218        0.538216678       -0.839834608        0.538216678       -0.839834608      -0.0234208367      -0.0159521152
          1.25e+09     -0.0234730365      -0.0158417901        0.534804465       -0.841997505        0.534804465       -0.841997505      -0.0234730397      -0.0158417854
         1.255e+09     -0.0235235474      -0.0157304209        0.531383189       -0.844146714        0.531383189       -0.844146714      -0.0235235518      -0.0157304141
          1.26e+09     -0.0235723527      -0.0156180268        0.527952901       -0.846282197        0.527952901       -0.846282197      -0.0235723578      -0.0156180188
         1.265e+09     -0.0236194401      -0.0155046212        0.524513655       -0.848403913        0.524513655       -0.848403913      -0.0236194436      -0.0155046158
          1.27e+09     -0.0236647945      -0.0153902222        0.521065502       -0.850511824        0.521065502       -0.850511824      -0.0236647979      -0.0153902168
         1.275e+09     -0.0237084031      -0.0152748445        0.517608496       -0.852605892        0.517608496       -0.852605892      -0.0237084075      -0.0152748375
          1.28e+09     -0.0237502546      -0.0151585009        0.514142689       -0.854686079        0.514142689       -0.854686079       -0.023750258      -0.0151584954
         1.285e+09     -0.0237903342        -0.01504121        0.510668136       -0.856752346        0.510668136       -0.856752346      -0.0237903386      -0.0150412029
          1.29e+09     -0.0238286308      -0.0149229849        0.507184888       -0.858804656        0.507184888       -0.858804656      -0.0238286351      -0.0149229778
         1.295e+09     -0.0238651313      -0.0148038423           0.503693        -0.86084297           0.503693        -0.86084297      -0.0238651357      -0.0148038351
           1.3e+09      -0.023899824       -0.014683797        0.500192525       -0.862867252        0.500192525       -0.862867252      -0.0238998274      -0.0146837913
         1.305e+09     -0.0239326951      -0.0145628675        0.496683517       -0.864877463        0.496683517       -0.864877463      -0.0239326995      -0.0145628601
          1.31e+09     -0.0239637339      -0.0144410674        0.493166031       -0.866873566        0.493166031       -0.866873566      -0.0239637383        -0.01444106
         1.315e+09     -0.0239929285       -0.014318413        0.489640119       -0.868855525        0.489640119       -0.868855525      -0.0239929319      -0.0143184071
          1.32e+09     -0.0240202656       -0.014194923        0.486105837       -0.870823303        0.486105837       -0.870823303        -0.02402027      -0.0141949155
         1.325e+09      -0.024045735      -0.0140706116        0.482563239       -0.872776862        0.482563239       -0.872776862      -0.0240457394       -0.014070604
          1.33e+09     -0.0240693247      -0.0139454961         0.47901238       -0.874716167         0.47901238       -0.874716167       -0.024069329      -0.0139454885
         1.335e+09     -0.0240910231      -0.0138195935        0.475453314        -0.87664118        0.475453314        -0.87664118      -0.0240910275      -0.0138195857
          1.34e+09     -0.0241108191      -0.0136929204        0.471886097       -0.878551867        0.471886097       -0.878551867      -0.0241108235      -0.0136929126
         1.345e+09     -0.0241287015      -0.0135654941        0.468310784        -0.88044819        0.468310784        -0.88044819      -0.0241287059      -0.0135654861
          1.35e+09     -0.0241446593      -0.0134373313        0.464727429       -0.882330114        0.464727429       -0.882330114      -0.0241446636      -0.0134373236
         1.355e+09     -0.0241586818        -0.01330845        0.461136089       -0.884197604        0.461136089       -0.884197604      -0.0241586862       -0.013308442
          1.36e+09     -0.0241707582       -0.013178867        0.457536818       -0.886050624        0.457536818       -0.886050624      -0.0241707625       -0.013178859
         1.365e+09     -0.0241808779      -0.0130486002        0.453929674       -0.887889139        0.453929674       -0.887889139      -0.0241808822       -0.013048592
          1.37e+09     -0.0241890306      -0.0129176669        0.450314711       -0.889713114        0.450314711       -0.889713114       -0.024189035      -0.0129176587
         1.375e+09     -0.0241952065      -0.0127860842        0.446691986       -0.891522514        0.446691986       -0.891522514        -0.02419521      -0.0127860778
          1.38e+09     -0.0241993947      -0.0126538718        0.443061555       -0.893317304        0.443061555       -0.893317304      -0.0241993981      -0.0126538653
         1.385e+09     -0.0242015851      -0.0125210477        0.439423474        -0.89509745        0.439423474        -0.89509745      -0.0242015893      -0.0125210393
          1.39e+09     -0.0242017689      -0.0123876281        0.435777801       -0.896862918        0.435777801       -0.896862918      -0.0242017731      -0.0123876197
         1.395e+09      -0.024199936      -0.0122536324        0.432124592       -0.898613673        0.432124592       -0.898613673      -0.0241999403      -0.0122536238
           1.4e+09     -0.0241960766      -0.0121190794        0.428463903       -0.900349682        0.428463903       -0.900349682      -0.0241960815      -0.0121190693
         1.405e+09     -0.0241901825      -0.0119839857        0.424795792       -0.902070911        0.424795792       -0.902070911      -0.0241901868      -0.0119839769
          1.41e+09     -0.0241822435      -0.0118483718        0.421120317       -0.903777326        0.421120317       -0.903777326      -0.0241822477       -0.011848363
         1.415e+09     -0.0241722509      -0.0117122558        0.417437534       -0.905468895        0.417437534       -0.905468895      -0.0241722551       -0.011712247
          1.42e+09     -0.0241601963      -0.0115756556        0.413747501       -0.907145584        0.413747501       -0.907145584      -0.0241601997      -0.0115756486
         1.425e+09     -0.0241460698      -0.0114385929        0.410050275       -0.908807359        0.410050275       -0.908807359       -0.024146074      -0.0114385839
          1.43e+09     -0.0241298642      -0.0113010839        0.406345915       -0.910454189        0.406345915       -0.910454189      -0.0241298684      -0.0113010749
         1.435e+09     -0.0241115708      -0.0111631488        0.402634479       -0.912086042        0.402634479       -0.912086042      -0.0241115749      -0.0111631396
          1.44e+09      -0.024091182       -0.011024807        0.398916026       -0.913702883        0.398916026       -0.913702883      -0.0240911863      -0.0110247976
         1.445e+09      -0.024068689      -0.0108860805        0.395190613       -0.915304681        0.395190613       -0.915304681      -0.0240686956      -0.0108860655
          1.45e+09     -0.0240440859        -0.01074698        0.391458299       -0.916891405        0.391458299       -0.916891405        -0.02404409      -0.0107469707
         1.455e+09     -0.0240173624      -0.0106075339        0.387719142       -0.918463023        0.387719142       -0.918463023      -0.0240173665      -0.0106075245
          1.46e+09     -0.0239885118      -0.0104677587        0.383973201       -0.920019503        0.383973201       -0.920019503      -0.0239885159      -0.0104677493
         1.465e+09      -0.023957527      -0.0103276744        0.380220535       -0.921560815        0.380220535       -0.921560815       -0.023957531      -0.0103276648
          1.47e+09     -0.0239244006      -0.0101873006        0.376461203       -0.923086925        0.376461203       -0.923086925      -0.0239244047       -0.010187291
         1.475e+09     -0.0238891262      -0.0100466563        0.372695265       -0.924597805        0.372695265       -0.924597805      -0.0238891294      -0.0100466488
          1.48e+09     -0.0238516958     -0.00990576475        0.368922779       -0.926093423        0.368922779       -0.926093423      -0.0238516998     -0.00990575502
         1.485e+09      -0.023812104     -0.00976464282        0.365143805       -0.927573749        0.365143805       -0.927573749       -0.023812108     -0.00976463301
          1.49e+09     -0.0237703439     -0.00962331181        0.361358403       -0.929038752        0.361358403       -0.929038752      -0.0237703478     -0.00962330193
         1.495e+09     -0.0237264091     -0.00948179177        0.357566633       -0.930488402        0.357566633       -0.930488402       -0.023726413      -0.0094817822
           1.5e+09      -0.023680294     -0.00934010385        0.353768555       -0.931922669        0.353768555       -0.931922669       -0.023680298     -0.00934009384
         1.505e+09     -0.0236319923     -0.00919826778        0.349964229       -0.933341524        0.349964229       -0.933341524      -0.0236319963      -0.0091982577
          1.51e+09     -0.0235814985     -0.00905630438        0.346153715       -0.934744938        0.346153715       -0.934744938      -0.0235815024     -0.00905629424
         1.515e+09     -0.0235287874     -0.00891422639         0.34233705        -0.93613289         0.34233705        -0.93613289      -0.0235287913     -0.00891421617
          1.52e+09     -0.0234738927     -0.00877207041        0.338514343       -0.937505332        0.338514343       -0.937505332      -0.0234738965     -0.00877206012
         1.525e+09     -0.0234167898     -0.00862984928        0.334685629       -0.938862245        0.334685629       -0.938862245      -0.0234167936     -0.00862983893
          1.53e+09     -0.0233574731     -0.00848758585        0.330850971         -0.9402036        0.330850971         -0.9402036      -0.0233574782     -0.00848757154
         1.535e+09     -0.0232959397     -0.00834529521        0.327010429        -0.94152937        0.327010429        -0.94152937      -0.0232959435     -0.00834528472
          1.54e+09     -0.0232321835     -0.00820300309        0.323164065       -0.942839525        0.323164065       -0.942839525      -0.0232321865     -0.00820299489
         1.545e+09     -0.0231661997     -0.00806073221        0.319311939       -0.944134037        0.319311939       -0.944134037      -0.0231662035     -0.00806072158
          1.55e+09     -0.0230979854     -0.00791849898        0.315454114        -0.94541288        0.315454114        -0.94541288      -0.0230979884     -0.00791849068
         1.555e+09     -0.0230275357     -0.00777632826         0.31159065       -0.946676025         0.31159065       -0.946676025      -0.0230275386      -0.0077763199
          1.56e+09     -0.0229548466     -0.00763424139        0.307721611       -0.947923445        0.307721611       -0.947923445      -0.0229548502     -0.00763423056
         1.565e+09     -0.0228799155      -0.0074922561        0.303847058       -0.949155113        0.303847058       -0.949155113      -0.0228799184     -0.00749224764
          1.57e+09     -0.0228027381     -0.00735039758        0.299967052       -0.950371002        0.299967052       -0.950371002       -0.022802741     -0.00735038897
